  can0  505   [8]  05 B8 D4 7F F3 36 00 00
  can0  401   [8]  81 1D 7F F0 52 05 27 FF 0.109 -0.011 82 82 0.006
  can0  403   [8]  96 80 7B 60 52 05 27 FF 
  can0  405   [8]  B8 4A 89 70 52 05 27 FF 5.497 3.330
  can0  503   [8]  03 96 DB 7F 1D C9 00 00
  can0  501   [8]  01 81 1C 7F E6 3D 00 00
  can0  505   [8]  05 B8 D4 7F C2 90 00 00 5.550 -0.077
  can0  401   [8]  81 1D 7F F0 52 05 27 FF
  can0  403   [8]  96 80 7B 60 52 05 27 FF
  can0  405   [8]  B8 4A 89 70 52 05 27 FF
  can0  503   [8]  03 96 DB 7F 3A 46 00 00
  can0  501   [8]  01 81 1C 80 27 3E 00 00
  can0  505   [8]  05 B8 D4 80 23 DA 00 00
  can0  401   [8]  81 1D 7F F0 52 05 27 FF
  can0  403   [8]  96 80 7B 60 52 05 27 FF
  can0  405   [8]  B8 4A 89 70 52 05 27 FF
  can0  503   [8]  03 96 DB 7F 15 0A 00 00
  can0  501   [8]  01 81 1C 80 26 60 00 00
  can0  505   [8]  05 B8 D4 7F C1 5D 00 00
  can0  401   [8]  81 1D 7F F0 52 05 27 FF
  can0  403   [8]  96 80 7B 60 52 05 27 FF
  can0  405   [8]  B8 4A 89 70 52 05 27 FF
  can0  503   [8]  03 96 DB 80 F5 6F 00 00
  can0  501   [8]  01 81 1C 7F 07 A6 00 00
  can0  505   [8]  05 B8 D4 80 23 9D 00 00
  can0  401   [8]  81 1D 7F F0 52 05 27 FF
  can0  403   [8]  96 80 7B 60 52 05 27 FF
  can0  405   [8]  B8 4A 89 70 52 05 27 FF
  can0  503   [8]  03 96 DB 80 FA D2 00 00
  can0  501   [8]  01 81 1C 7F 06 A9 00 00
  can0  505   [8]  05 B8 D4 80 54 FA 00 00
  can0  401   [8]  81 1D 7F F0 52 05 27 FF
  can0  403   [8]  96 80 7B 60 52 05 27 FF
  can0  405   [8]  B8 4A 89 70 52 05 27 FF
  can0  503   [8]  03 96 DB 7F 1A 64 00 00
  can0  501   [8]  01 81 1C 7F 07 C9 00 00
  can0  505   [8]  05 B8 D4 7F C4 C6 00 00
  can0  401   [8]  81 1D 7F F0 52 05 27 FF
  can0  403   [8]  96 80 7B 60 52 05 27 FF
  can0  405   [8]  B8 4A 89 70 52 05 27 FF
  can0  503   [8]  03 96 DB 7F 18 C2 00 00
  can0  501   [8]  01 81 1C 80 26 84 00 00
  can0  505   [8]  05 B8 D4 80 23 64 00 00
  can0  401   [8]  81 1D 7F F0 52 05 27 FF
  can0  403   [8]  96 80 7B 60 52 05 27 FF
  can0  405   [8]  B8 4A 89 70 52 05 27 FF
  can0  503   [8]  03 96 DB 7F 18 F7 00 00
  can0  501   [8]  01 81 1C 80 49 2B 00 00
  can0  505   [8]  05 B8 D3 7F 93 60 00 00
  can0  401   [8]  81 1D 7F F0 52 05 27 FF
  can0  403   [8]  96 80 7B 60 52 05 27 FF
  can0  405   [8]  B8 4A 89 70 52 05 27 FF
  can0  503   [8]  03 96 DB 7F 18 98 00 00
  can0  501   [8]  01 81 1C 80 47 0C 00 00
  can0  505   [8]  05 B8 D4 80 23 BE 00 00
  can0  401   [8]  81 1D 7F F0 52 05 27 FF
  can0  403   [8]  96 80 7B 60 52 05 27 FF
  can0  405   [8]  B8 4A 89 70 52 05 27 FF
  can0  503   [8]  03 96 DB 7F 1A 17 00 00
  can0  501   [8]  01 81 1C 7F E6 F0 00 00
  can0  505   [8]  05 B8 D4 7F F4 23 00 00
  can0  401   [8]  81 1D 7F F0 52 05 27 FF
  can0  403   [8]  96 9A 7B 60 52 05 27 FF
  can0  405   [8]  B8 4A 89 70 52 05 27 FF
  can0  501   [8]  01 81 1C 80 27 38 00 00
  can0  503   [8]  03 96 DB 7F 17 57 00 00
  can0  505   [8]  05 B8 D4 7F F4 57 00 00
  can0  401   [8]  81 1D 7F F0 52 05 27 FF
  can0  403   [8]  96 9A 7B 60 52 05 27 FF
  can0  405   [8]  B8 4A 89 70 52 05 27 FF
  can0  503   [8]  03 96 DB 7F 15 43 00 00
  can0  501   [8]  01 81 1C 7F 07 A7 00 00
  can0  505   [8]  05 B8 D4 7F F2 C9 00 00
  can0  401   [8]  81 1D 7F F0 52 05 27 FF
  can0  403   [8]  96 9A 7B 60 52 05 27 FF
  can0  405   [8]  B8 4A 89 70 52 05 27 FF
  can0  501   [8]  01 81 1C 7F C6 CD 00 00
  can0  503   [8]  03 96 DB 7F 16 1F 00 00
  can0  505   [8]  05 B8 D3 7F C4 77 00 00
  can0  401   [8]  81 1D 7F F0 52 05 27 FF
  can0  403   [8]  96 9A 7B 60 52 05 27 FF
  can0  405   [8]  B8 4A 89 70 52 05 27 FF
  can0  501   [8]  01 81 1C 7F E6 AD 00 00
  can0  503   [8]  03 96 DB 7F 39 A6 00 00
  can0  505   [8]  05 B8 D3 7F C4 36 00 00
  can0  401   [8]  81 1D 7F F0 52 05 27 FF
  can0  403   [8]  96 9A 7B 60 52 05 27 FF
  can0  405   [8]  B8 4A 89 70 52 05 27 FF
  can0  503   [8]  03 96 DB 7F 3B 4A 00 00
  can0  501   [8]  01 81 1C 80 27 6F 00 00
  can0  505   [8]  05 B8 D3 7F 92 DB 00 00
  can0  401   [8]  81 1D 7F F0 52 05 27 FF
  can0  403   [8]  96 9A 7B 60 52 05 27 FF
  can0  405   [8]  B8 4A 89 70 52 05 27 FF
  can0  503   [8]  03 96 DB 7F 1A 0C 00 00
  can0  501   [8]  01 81 1C 7F 07 65 00 00
  can0  505   [8]  05 B8 D3 7F 94 9D 00 00
  can0  401   [8]  81 1D 7F F0 52 05 27 FF
  can0  403   [8]  96 9A 7B 60 52 05 27 FF
  can0  405   [8]  B8 4A 89 70 52 05 27 FF
  can0  503   [8]  03 96 DB 80 F7 6F 00 00
  can0  501   [8]  01 81 1C 7F 06 9E 00 00
  can0  505   [8]  05 B8 D4 7F F2 C9 00 00
  can0  401   [8]  81 1D 7F F0 52 05 27 FF
  can0  403   [8]  96 9A 7B 60 52 05 27 FF
  can0  405   [8]  B8 4A 89 70 52 05 27 FF
  can0  503   [8]  03 96 DB 7F 1A E8 00 00
  can0  501   [8]  01 81 1C 7F E7 45 00 00
  can0  505   [8]  05 B8 D3 7F F3 FA 00 00
  can0  401   [8]  81 1D 7F F0 52 05 27 FF
  can0  403   [8]  96 9A 7B 60 52 05 27 FF
  can0  405   [8]  B8 4A 89 70 52 05 27 FF
  can0  503   [8]  03 96 DB 7F 1C 88 00 00
  can0  501   [8]  01 81 1C 7F E6 03 00 00
  can0  505   [8]  05 B8 D3 7F F2 CB 00 00
  can0  401   [8]  81 1D 7F F0 52 05 27 FF
  can0  403   [8]  96 9A 7B 60 52 05 27 FF
  can0  405   [8]  B8 4A 89 70 52 05 27 FF
  can0  501   [8]  01 81 1C 7F E7 57 00 00
  can0  503   [8]  03 96 DB 80 FC A7 00 00
  can0  505   [8]  05 B8 D3 7F C3 BF 00 00
  can0  401   [8]  81 1D 7F F0 52 05 27 FF
  can0  403   [8]  96 9A 7B 60 52 05 27 FF
  can0  405   [8]  B8 4A 89 70 52 05 27 FF
  can0  503   [8]  03 96 DB 80 F9 73 00 00
  can0  501   [8]  01 81 1C 7F E6 98 00 00
  can0  505   [8]  05 B8 D3 7F C3 13 00 00
  can0  401   [8]  81 1D 7F F0 52 05 27 FF
  can0  403   [8]  96 9A 7B 60 52 05 27 FF
  can0  405   [8]  B8 4A 89 70 52 05 27 FF
  can0  501   [8]  01 81 1C 80 26 FC 00 00
  can0  503   [8]  03 96 DB 7F 1A 5E 00 00
  can0  505   [8]  05 B8 D3 7F 94 FD 00 00
  can0  401   [8]  81 1D 7F F0 52 05 27 FF
  can0  403   [8]  96 9A 7B 60 52 05 27 FF
  can0  405   [8]  B8 4A 89 70 52 05 27 FF
  can0  503   [8]  03 96 DB 7F 1B 49 00 00
  can0  501   [8]  01 81 1C 7F 07 4F 00 00
  can0  505   [8]  05 B8 D3 7F F3 19 00 00
  can0  401   [8]  81 1D 7F F0 52 05 27 FF
  can0  403   [8]  96 9A 7B 60 52 05 27 FF
  can0  405   [8]  B8 30 89 70 52 05 27 FF
  can0  503   [8]  03 96 DB 7F 1A 90 00 00
  can0  501   [8]  01 81 1C 80 26 35 00 00
  can0  505   [8]  05 B8 D3 7F F3 12 00 00
  can0  401   [8]  81 1D 7F F0 52 05 27 FF
  can0  403   [8]  96 9A 7B 60 52 05 27 FF
  can0  405   [8]  B8 30 89 70 52 05 27 FF 
  can0  501   [8]  01 81 1C 80 27 09 00 00
  can0  503   [8]  03 96 DB 7F 18 AE 00 00
  can0  505   [8]  05 B8 D3 7F 75 50 00 00
  can0  401   [8]  81 1D 7F F0 52 05 27 FF
  can0  403   [8]  96 9A 7B 60 52 05 27 FF
  can0  405   [8]  B8 30 89 70 52 05 27 FF
  can0  501   [8]  01 81 1C 7F 06 91 00 00
  can0  503   [8]  03 96 DB 7F 19 21 00 00
  can0  505   [8]  05 B8 D3 7F F3 93 00 00
  can0  401   [8]  81 1D 7F F0 52 05 27 FF
  can0  403   [8]  96 9A 7B 60 52 05 27 FF
  can0  405   [8]  B8 30 89 70 52 05 27 FF
  can0  501   [8]  01 81 1C 7F E6 9F 00 00
  can0  503   [8]  03 96 DB 7F 19 51 00 00
  can0  505   [8]  05 B8 D3 7F C4 7C 00 00
  can0  401   [8]  81 1D 7F F0 52 05 27 FF
  can0  403   [8]  96 9A 7B 60 52 05 27 FF
  can0  405   [8]  B8 30 89 70 52 05 27 FF
  can0  501   [8]  01 81 1C 7F E6 6F 00 00
  can0  503   [8]  03 96 DB 7F 3B 19 00 00
  can0  505   [8]  05 B8 D3 7F F3 F3 00 00
  can0  401   [8]  81 1D 7F F0 52 05 27 FF
  can0  403   [8]  96 9A 7B 70 52 05 27 FF
  can0  405   [8]  B8 30 89 70 52 05 27 FF
  can0  503   [8]  03 96 DB 81 E0 BF 00 00
  can0  501   [8]  01 81 1C 80 46 53 00 00
  can0  505   [8]  05 B8 D3 7F C4 82 00 00
  can0  401   [8]  81 1D 7F F0 52 05 27 FF
  can0  403   [8]  96 9A 7B 70 52 05 27 FF
  can0  405   [8]  B8 30 89 70 52 05 27 FF
  can0  501   [8]  01 81 1C 80 28 91 00 00
  can0  503   [8]  03 96 DA 7F 1E DD 00 00
  can0  505   [8]  05 B8 D3 80 23 51 00 00
  can0  401   [8]  81 1D 7F F0 52 05 27 FF
  can0  403   [8]  96 9A 7B 70 52 05 27 FF
  can0  405   [8]  B8 30 89 70 52 05 27 FF
  can0  501   [8]  01 81 1C 7F E7 6D 00 00
  can0  503   [8]  03 96 DB 7E 53 C1 00 00
  can0  505   [8]  05 B8 D3 7F F3 97 00 00
  can0  401   [8]  81 1D 7F F0 52 05 27 FF
  can0  403   [8]  96 9A 7B 70 52 05 27 FF
  can0  405   [8]  B8 30 89 70 52 05 27 FF
  can0  501   [8]  01 81 1C 80 26 54 00 00
  can0  503   [8]  03 96 DA 7F 32 B2 00 00
  can0  505   [8]  05 B8 D3 7F F2 8A 00 00
  can0  401   [8]  81 1D 7F F0 52 05 27 FF
  can0  403   [8]  96 9A 7B 70 52 05 27 FF
  can0  405   [8]  B8 30 89 70 52 05 27 FF
  can0  501   [8]  01 81 1C 7F E7 A6 00 00
  can0  503   [8]  03 96 DA 7F 15 A7 00 00
  can0  505   [8]  05 B8 D3 7F C4 01 00 00
  can0  401   [8]  81 1D 7F F0 52 05 27 FF
  can0  403   [8]  96 9A 7B 70 52 05 27 FF
  can0  405   [8]  B8 30 89 70 52 05 27 FF
  can0  503   [8]  03 96 DA 80 FA F4 00 00
  can0  501   [8]  01 81 1C 80 25 88 00 00
  can0  505   [8]  05 B8 D3 7F F1 C3 00 00
  can0  401   [8]  81 1D 7F F0 52 05 27 FF
  can0  403   [8]  96 9A 7B 70 52 05 27 FF
  can0  405   [8]  B8 30 89 70 52 05 27 FF
  can0  503   [8]  03 96 DA 80 FA 56 00 00
  can0  501   [8]  01 81 1C 7F 07 A2 00 00
  can0  505   [8]  05 B8 D3 80 24 3D 00 00
  can0  401   [8]  81 1D 7F F0 52 05 27 FF
  can0  403   [8]  96 9A 7B 70 52 05 27 FF
  can0  405   [8]  B8 30 89 70 52 05 27 FF
  can0  503   [8]  03 96 DA 7F 19 E4 00 00
  can0  501   [8]  01 81 1C 7F E7 7B 00 00
  can0  505   [8]  05 B8 D3 80 23 6F 00 00
  can0  401   [8]  81 1D 7F F0 52 05 27 FF
  can0  403   [8]  96 9A 7B 70 52 05 27 FF
  can0  405   [8]  B8 30 89 70 52 05 27 FF
  can0  501   [8]  01 81 1C 7F E6 95 00 00
  can0  503   [8]  03 96 DA 7F 37 FA 00 00
  can0  505   [8]  05 B8 D3 7F F3 5F 00 00
  can0  401   [8]  81 1D 7F F0 52 05 27 FF
  can0  403   [8]  96 9A 7B 70 52 05 27 FF
  can0  405   [8]  B8 30 89 70 52 05 27 FF
  can0  503   [8]  03 96 DA 7F 1B A2 00 00
  can0  501   [8]  01 81 1C 7F E7 22 00 00
  can0  505   [8]  05 B8 D3 7F C3 D0 00 00
  can0  401   [8]  81 1D 7F F0 52 05 27 FF
  can0  403   [8]  96 9A 7B 70 52 05 27 FF
  can0  405   [8]  B8 30 89 70 52 05 27 FF
  can0  503   [8]  03 96 DA 7F 1B 15 00 00
  can0  501   [8]  01 81 1C 7F 06 6D 00 00
  can0  505   [8]  05 B8 D3 7F F4 44 00 00
  can0  401   [8]  81 1D 7F F0 52 05 27 FF
  can0  403   [8]  96 9A 7B 70 52 05 27 FF
  can0  405   [8]  B8 30 89 70 52 05 27 FF
  can0  501   [8]  01 81 1C 7F 07 3F 00 00
  can0  503   [8]  03 96 DA 80 FB 5E 00 00
  can0  505   [8]  05 B8 D3 7F F3 75 00 00
  can0  401   [8]  81 1D 7F F0 52 05 27 FF
  can0  403   [8]  96 9A 7B 70 52 05 27 FF
  can0  405   [8]  B8 30 89 70 52 05 27 FF
  can0  501   [8]  01 81 1C 7F E6 47 00 00
  can0  503   [8]  03 96 DA 7F 1C 43 00 00
  can0  505   [8]  05 B8 D3 7F F4 5C 00 00
  can0  401   [8]  81 1D 7F F0 52 05 27 FF
  can0  403   [8]  96 9A 7B 70 52 05 27 FF
  can0  405   [8]  B8 30 89 70 52 05 27 FF
  can0  501   [8]  01 81 1C 80 27 33 00 00
  can0  503   [8]  03 96 DA 7F 39 BA 00 00
  can0  505   [8]  05 B8 D3 80 23 EF 00 00
  can0  401   [8]  81 1D 7F F0 52 05 27 FF
  can0  403   [8]  96 9A 7B 70 52 05 27 FF
  can0  405   [8]  B8 30 89 70 52 05 27 FF
  can0  503   [8]  03 96 DA 7F 1A 12 00 00
  can0  501   [8]  01 81 1C 7F 07 21 00 00
  can0  505   [8]  05 B8 D3 7F F2 DE 00 00
  can0  401   [8]  81 1D 7F F0 52 05 27 FF
  can0  403   [8]  96 9A 7B 70 52 05 27 FF
  can0  405   [8]  B8 30 89 70 52 05 27 FF
  can0  501   [8]  01 81 1C 7F C8 10 00 00
  can0  503   [8]  03 96 DA 7F 1A C2 00 00
  can0  505   [8]  05 B8 D3 7F F3 B0 00 00
  can0  401   [8]  81 1D 7F F0 52 05 27 FF
  can0  403   [8]  96 9A 7B 70 52 05 27 FF
  can0  405   [8]  B8 30 89 70 52 05 27 FF
  can0  503   [8]  03 96 DA 7F 1C B3 00 00
  can0  501   [8]  01 81 1C 80 27 52 00 00
  can0  505   [8]  05 B8 D2 7F F4 3F 00 00
  can0  401   [8]  81 1D 7F F0 52 05 27 FF
  can0  403   [8]  96 9A 7B 70 52 05 27 FF
  can0  405   [8]  B8 30 89 70 52 05 27 FF
  can0  501   [8]  01 81 1C 7F C5 D2 00 00
  can0  503   [8]  03 96 DA 7F 19 DD 00 00
  can0  505   [8]  05 B8 D3 7F F3 19 00 00
  can0  401   [8]  81 1D 7F F0 52 05 27 FF
  can0  403   [8]  96 9A 7B 70 52 05 27 FF
  can0  405   [8]  B8 30 89 70 52 05 27 FF
  can0  501   [8]  01 81 1C 7F 06 DC 00 00
  can0  503   [8]  03 96 DA 7F 1B 14 00 00
  can0  505   [8]  05 B8 D2 7F C3 B4 00 00
  can0  401   [8]  81 1D 7F F0 52 05 27 FF
  can0  403   [8]  96 9A 7B 70 52 05 27 FF
  can0  405   [8]  B8 30 89 70 52 05 27 FF
  can0  503   [8]  03 96 DA 7F 1B 9F 00 00
  can0  501   [8]  01 81 1C 7F A6 64 00 00
  can0  505   [8]  05 B8 D2 80 24 0F 00 00
  can0  401   [8]  81 1D 7F F0 52 05 27 FF
  can0  403   [8]  96 9A 7B 70 52 05 27 FF
  can0  405   [8]  B8 30 89 70 52 05 27 FF
  can0  503   [8]  03 96 DA 7F 19 3B 00 00
  can0  501   [8]  01 81 1C 80 45 A7 00 00
  can0  505   [8]  05 B8 D2 7F F3 30 00 00
  can0  401   [8]  81 1D 7F F0 52 05 27 FF
  can0  403   [8]  96 9A 7B 70 52 05 27 FF
  can0  405   [8]  B8 30 89 70 52 05 27 FF
  can0  503   [8]  03 96 DA 7F 11 02 00 00
  can0  501   [8]  01 81 1C 7F E6 DA 00 00
  can0  505   [8]  05 B8 D2 7F C3 53 00 00
  can0  401   [8]  81 1D 7F F0 52 05 27 FF
  can0  403   [8]  96 9A 7B 70 52 05 27 FF
  can0  405   [8]  B8 30 89 70 52 05 27 FF
  can0  501   [8]  01 81 1C 7F 06 C3 00 00
  can0  503   [8]  03 96 DA 7F 33 8D 00 00
  can0  505   [8]  05 B8 D2 80 23 DE 00 00
  can0  401   [8]  81 1D 7F F0 52 05 27 FF
  can0  403   [8]  96 9A 7B 70 52 05 27 FF
  can0  405   [8]  B8 30 89 70 52 05 27 FF
  can0  503   [8]  03 96 DA 81 D6 1F 00 00
  can0  501   [8]  01 81 1C 80 27 9A 00 00
  can0  505   [8]  05 B8 D2 7F F2 34 00 00
  can0  401   [8]  81 1D 7F F0 52 05 27 FF
  can0  403   [8]  96 9A 7B 70 52 05 27 FF
  can0  405   [8]  B8 30 89 70 52 05 27 FF
  can0  501   [8]  01 81 1C 7F 07 A9 00 00
  can0  503   [8]  03 96 DA 7F 17 86 00 00
  can0  505   [8]  05 B8 D2 7F 94 A8 00 00
  can0  401   [8]  81 1D 7F F0 52 05 27 FF
  can0  403   [8]  96 9A 7B 70 52 05 27 FF
  can0  405   [8]  B8 30 89 70 52 05 27 FF
  can0  503   [8]  03 96 DA 7F 17 74 00 00
  can0  501   [8]  01 81 1C 7F 06 F9 00 00
  can0  505   [8]  05 B8 D2 7F F4 8C 00 00
  can0  401   [8]  81 1D 7F F0 52 05 27 FF
  can0  403   [8]  96 9A 7B 70 52 05 27 FF
  can0  405   [8]  B8 30 89 70 52 05 27 FF
  can0  501   [8]  01 81 1C 7F 07 49 00 00
  can0  503   [8]  03 96 D9 7F 1A 01 00 00
  can0  505   [8]  05 B8 D2 80 23 7D 00 00
  can0  401   [8]  81 1D 7F F0 52 05 27 FF
  can0  403   [8]  96 9A 7B 70 52 05 27 FF
  can0  405   [8]  B8 30 89 70 52 05 27 FF
  can0  503   [8]  03 96 D9 7F 40 EE 00 00
  can0  501   [8]  01 81 1C 7F 06 27 00 00
  can0  505   [8]  05 B8 D2 7F F4 B4 00 00
  can0  401   [8]  81 1D 7F F0 52 05 27 FF
  can0  403   [8]  96 9A 7B 70 52 05 27 FF
  can0  405   [8]  B8 30 89 70 52 05 27 FF
  can0  503   [8]  03 96 D9 7F 1E 63 00 00
  can0  501   [8]  01 81 1C 80 47 CB 00 00
  can0  505   [8]  05 B8 D2 7F F3 5C 00 00
  can0  401   [8]  81 1D 7F F0 52 05 27 FF
  can0  403   [8]  96 9A 7B 70 52 05 27 FF
  can0  405   [8]  B8 30 89 70 52 05 27 FF
  can0  501   [8]  01 81 1C 7F 06 FE 00 00
  can0  503   [8]  03 96 D9 7F 3A 31 00 00
  can0  505   [8]  05 B8 D2 7F C3 B1 00 00
  can0  401   [8]  81 1D 7F F0 52 05 27 FF
  can0  403   [8]  96 9A 7B 70 52 05 27 FF
  can0  405   [8]  B8 30 89 70 52 05 27 FF
  can0  501   [8]  01 81 1C 7F C6 E3 00 00
  can0  503   [8]  03 96 D9 7F 16 74 00 00
  can0  505   [8]  05 B8 D2 7F F2 68 00 00
  can0  401   [8]  81 1D 7F F0 52 05 27 FF
  can0  403   [8]  96 9A 7B 70 52 05 27 FF
  can0  405   [8]  B8 30 89 70 52 05 27 FF
  can0  503   [8]  03 96 D9 7F 12 D5 00 00
  can0  501   [8]  01 81 1C 80 26 EB 00 00
  can0  505   [8]  05 B8 D2 80 54 21 00 00
  can0  401   [8]  81 1D 7F F0 52 05 27 FF
  can0  403   [8]  96 9A 7B 70 52 05 27 FF
  can0  405   [8]  B8 30 89 70 52 05 27 FF
  can0  501   [8]  01 81 1C 7F 07 1C 00 00
  can0  503   [8]  03 96 D9 80 F4 E0 00 00
  can0  505   [8]  05 B8 D2 80 23 A6 00 00
  can0  401   [8]  81 1D 7F F0 52 05 27 FF
  can0  403   [8]  96 B4 7B 70 52 05 27 FF
  can0  405   [8]  B8 30 89 70 52 05 27 FF
  can0  501   [8]  01 81 1C 7F 07 D8 00 00
  can0  503   [8]  03 96 D9 7F 13 E7 00 00
  can0  505   [8]  05 B8 D2 80 24 51 00 00
  can0  401   [8]  81 1D 7F F0 52 05 27 FF
  can0  403   [8]  96 B4 7B 70 52 05 27 FF
  can0  405   [8]  B8 30 89 70 52 05 27 FF
  can0  503   [8]  03 96 D9 7F 16 D3 00 00
  can0  501   [8]  01 81 1C 7F 06 4E 00 00
  can0  505   [8]  05 B8 D2 80 24 E4 00 00
  can0  401   [8]  81 1D 7F F0 52 05 27 FF
  can0  403   [8]  96 B4 7B 70 52 05 27 FF
  can0  405   [8]  B8 30 89 70 52 05 27 FF
  can0  501   [8]  01 81 1C 7F 07 18 00 00
  can0  503   [8]  03 96 D9 7F 15 94 00 00
  can0  505   [8]  05 B8 D2 7F F3 07 00 00
  can0  401   [8]  81 1D 7F F0 52 05 27 FF
  can0  403   [8]  96 B4 7B 70 52 05 27 FF
  can0  405   [8]  B8 30 89 70 52 05 27 FF
  can0  503   [8]  03 96 D9 7F 14 4A 00 00
  can0  501   [8]  01 81 1C 7F E6 9A 00 00
  can0  505   [8]  05 B8 D2 80 25 0B 00 00
  can0  401   [8]  81 1D 7F F0 52 05 27 FF
  can0  403   [8]  96 B4 7B 70 52 05 27 FF
  can0  405   [8]  B8 30 89 70 52 05 27 FF
  can0  503   [8]  03 96 D9 80 F7 BC 00 00
  can0  501   [8]  01 81 1C 7F E6 BA 00 00
  can0  505   [8]  05 B8 D2 7F F3 B8 00 00
  can0  401   [8]  81 1D 7F F0 52 05 27 FF
  can0  403   [8]  96 B4 7B 70 52 05 27 FF
  can0  405   [8]  B8 30 89 70 52 05 27 FF
  can0  501   [8]  01 81 1C 7F E5 E6 00 00
  can0  503   [8]  03 96 D9 7F 1C 7D 00 00
  can0  505   [8]  05 B8 D2 80 23 E8 00 00
  can0  401   [8]  81 1D 7F F0 52 05 27 FF
  can0  403   [8]  96 B4 7B 70 52 05 27 FF
  can0  405   [8]  B8 30 89 70 52 05 27 FF
  can0  503   [8]  03 96 D8 7F 1E EA 00 00
  can0  501   [8]  01 81 1C 7F 07 06 00 00
  can0  505   [8]  05 B8 D1 7F F4 05 00 00
  can0  401   [8]  81 1D 7F F0 52 05 27 FF
  can0  403   [8]  96 B4 7B 70 52 05 27 FF
  can0  405   [8]  B8 30 89 70 52 05 27 FF
  can0  503   [8]  03 96 D9 80 00 CA 00 00
  can0  501   [8]  01 81 1C 80 26 AB 00 00
  can0  505   [8]  05 B8 D2 80 51 EE 00 00
  can0  401   [8]  81 1D 7F F0 52 05 27 FF
  can0  403   [8]  96 B4 7B 70 52 05 27 FF
  can0  405   [8]  B8 30 89 70 52 05 27 FF
  can0  503   [8]  03 96 D9 80 FE CC 00 00
  can0  501   [8]  01 81 1C 7F 07 CB 00 00
  can0  505   [8]  05 B8 D1 7F F3 FF 00 00
  can0  401   [8]  81 1D 7F F0 52 05 27 FF
  can0  403   [8]  96 B4 7B 70 52 05 27 FF
  can0  405   [8]  B8 30 89 70 52 05 27 FF
  can0  503   [8]  03 96 D8 80 FC 51 00 00
  can0  501   [8]  01 81 1C 80 28 12 00 00
  can0  505   [8]  05 B8 D1 7F C5 0E 00 00
  can0  401   [8]  81 1D 7F F0 52 05 27 FF
  can0  403   [8]  96 B4 7B 70 52 05 27 FF
  can0  405   [8]  B8 30 89 70 52 05 27 FF
  can0  503   [8]  03 96 D8 7F 1D FA 00 00
  can0  501   [8]  01 81 1C 7F 07 60 00 00
  can0  505   [8]  05 B8 D1 7F C3 43 00 00
  can0  401   [8]  81 1D 7F F0 52 05 27 FF
  can0  403   [8]  96 B4 7B 70 52 05 27 FF
  can0  405   [8]  B8 30 89 70 52 05 27 FF
  can0  503   [8]  03 96 D8 7F 1C 19 00 00
  can0  501   [8]  01 81 1C 7F E7 79 00 00
  can0  505   [8]  05 B8 D1 7F C3 EA 00 00
  can0  401   [8]  81 1D 7F F0 52 05 27 FF
  can0  403   [8]  96 B4 7B 70 52 05 27 FF
  can0  405   [8]  B8 30 89 70 52 05 27 FF
  can0  501   [8]  01 81 1C 7F 06 D0 00 00
  can0  503   [8]  03 96 D8 7F 38 36 00 00
  can0  505   [8]  05 B8 D1 7F C2 1B 00 00
  can0  401   [8]  81 1D 7F F0 52 05 27 FF
  can0  403   [8]  96 B4 7B 70 52 05 27 FF
  can0  405   [8]  B8 30 89 70 52 05 27 FF
  can0  503   [8]  03 96 D8 7F 34 C7 00 00
  can0  501   [8]  01 81 1C 7F E6 49 00 00
  can0  505   [8]  05 B8 D1 80 24 89 00 00
  can0  401   [8]  81 1D 7F F0 52 05 27 FF
  can0  403   [8]  96 B4 7B 70 52 05 27 FF
  can0  405   [8]  B8 30 89 70 52 05 27 FF
  can0  503   [8]  03 96 D8 7F 35 54 00 00
  can0  501   [8]  01 81 1C 7F 06 E8 00 00
  can0  505   [8]  05 B8 D1 80 73 CF 00 00
  can0  401   [8]  81 1D 7F F0 52 05 27 FF
  can0  403   [8]  96 B4 7B 70 52 05 27 FF
  can0  405   [8]  B8 30 89 70 52 05 27 FF
  can0  501   [8]  01 81 1C 7F 07 DA 00 00
  can0  503   [8]  03 96 D8 80 F8 02 00 00
  can0  505   [8]  05 B8 D1 7F C4 F5 00 00
  can0  401   [8]  81 1D 7F F0 52 05 27 FF
  can0  403   [8]  96 B4 7B 70 52 05 27 FF
  can0  405   [8]  B8 30 89 70 52 05 27 FF
  can0  503   [8]  03 96 D8 7F 18 E3 00 00
  can0  501   [8]  01 81 1C 7F E6 7A 00 00
  can0  505   [8]  05 B8 D1 7F F3 C8 00 00
  can0  401   [8]  81 1D 7F F0 52 05 27 FF
  can0  403   [8]  96 B4 7B 70 52 05 27 FF
  can0  405   [8]  B8 30 89 70 52 05 27 FF
  can0  503   [8]  03 96 D8 7F 3A 69 00 00
  can0  501   [8]  01 81 1C 80 27 3B 00 00
  can0  505   [8]  05 B8 D1 7F C3 97 00 00
  can0  401   [8]  81 1D 7F F0 52 05 27 FF
  can0  403   [8]  96 B4 7B 70 52 05 27 FF
  can0  405   [8]  B8 30 89 70 52 05 27 FF
  can0  501   [8]  01 81 1C 7F E7 65 00 00
  can0  503   [8]  03 96 D8 80 F8 3B 00 00
  can0  505   [8]  05 B8 D1 7F C2 61 00 00
  can0  401   [8]  81 1D 7F F0 52 05 27 FF
  can0  403   [8]  96 B4 7B 80 52 05 27 FF
  can0  405   [8]  B8 30 89 70 52 05 27 FF
  can0  503   [8]  03 96 D8 80 FB ED 00 00
  can0  501   [8]  01 81 1C 80 27 1C 00 00
  can0  505   [8]  05 B8 D0 7F F5 9D 00 00
  can0  401   [8]  81 1D 7F F0 52 05 27 FF
  can0  403   [8]  96 B4 7B 80 52 05 27 FF
  can0  405   [8]  B8 30 89 70 52 05 27 FF
  can0  501   [8]  01 81 1C 7F 07 34 00 00
  can0  503   [8]  03 96 D8 7F 3D F1 00 00
  can0  505   [8]  05 B8 D0 7F C4 78 00 00
  can0  401   [8]  81 1D 7F F0 52 05 27 FF
  can0  403   [8]  96 B4 7B 80 52 05 27 FF
  can0  405   [8]  B8 30 89 70 52 05 27 FF
  can0  503   [8]  03 96 D8 7F 1B C1 00 00
  can0  501   [8]  01 81 1C 7F C7 CE 00 00
  can0  505   [8]  05 B8 D0 7F F4 58 00 00
  can0  401   [8]  81 1D 7F F0 52 05 27 FF
  can0  403   [8]  96 B4 7B 80 52 05 27 FF
  can0  405   [8]  B8 30 89 70 52 05 27 FF
  can0  503   [8]  03 96 D8 7F 1C EF 00 00
  can0  501   [8]  01 81 1C 7F 06 FD 00 00
  can0  505   [8]  05 B8 D0 7F C4 27 00 00
  can0  401   [8]  81 1D 7F F0 52 05 27 FF
  can0  403   [8]  96 B4 7B 80 52 05 27 FF
  can0  405   [8]  B8 30 89 70 52 05 27 FF
  can0  501   [8]  01 81 1C 7F 05 EB 00 00
  can0  503   [8]  03 96 D7 7F 3D 80 00 00
  can0  505   [8]  05 B8 D0 7F F5 6F 00 00
  can0  401   [8]  81 1D 7F F0 52 05 27 FF
  can0  403   [8]  96 B4 7B 80 52 05 27 FF
  can0  405   [8]  B8 30 89 70 52 05 27 FF
  can0  501   [8]  01 81 1C 7F 07 63 00 00
  can0  503   [8]  03 96 D8 7F 3C 7F 00 00
  can0  505   [8]  05 B8 D0 7F C3 18 00 00
  can0  401   [8]  81 1D 7F F0 52 05 27 FF
  can0  403   [8]  96 B4 7B 80 52 05 27 FF
  can0  405   [8]  B8 30 89 70 52 05 27 FF
  can0  503   [8]  03 96 D8 80 FA 57 00 00
  can0  501   [8]  01 81 1C 7F E6 65 00 00
  can0  505   [8]  05 B8 D0 80 24 EC 00 00
  can0  401   [8]  81 1D 7F F0 52 05 27 FF
  can0  403   [8]  96 B4 7B 80 52 05 27 FF
  can0  405   [8]  B8 30 89 70 52 05 27 FF
  can0  503   [8]  03 96 D7 7F 36 50 00 00
  can0  501   [8]  01 81 1C 7F 06 62 00 00
  can0  505   [8]  05 B8 D0 7F F5 66 00 00
  can0  401   [8]  81 1D 7F F0 52 05 27 FF
  can0  403   [8]  96 B4 7B 80 52 05 27 FF
  can0  405   [8]  B8 30 89 70 52 05 27 FF
  can0  503   [8]  03 96 D7 7F 16 F4 00 00
  can0  501   [8]  01 81 1C 7F 07 26 00 00
  can0  505   [8]  05 B8 CF 7F F4 E8 00 00
  can0  401   [8]  81 1D 7F F0 52 05 27 FF
  can0  403   [8]  96 B4 7B 80 52 05 27 FF
  can0  405   [8]  B8 30 89 70 52 05 27 FF
  can0  503   [8]  03 96 D7 7F 18 43 00 00
  can0  501   [8]  01 81 1C 80 26 0B 00 00
  can0  505   [8]  05 B8 CF 7F 92 E6 00 00
  can0  401   [8]  81 1D 7F F0 52 05 27 FF
  can0  403   [8]  96 B4 7B 80 52 05 27 FF
  can0  405   [8]  B8 30 89 70 52 05 27 FF
  can0  501   [8]  01 81 1C 7F E7 C3 00 00
  can0  503   [8]  03 96 D7 7F 3B 2C 00 00
  can0  505   [8]  05 B8 CF 7F 95 5D 00 00
  can0  401   [8]  81 1D 7F F0 52 05 27 FF
  can0  403   [8]  96 B4 7B 80 52 05 27 FF
  can0  405   [8]  B8 30 89 70 52 05 27 FF
  can0  501   [8]  01 81 1C 80 26 DA 00 00
  can0  503   [8]  03 96 D7 7F 1C 6F 00 00
  can0  505   [8]  05 B8 CF 7F C4 0F 00 00
  can0  401   [8]  81 1D 7F F0 52 05 27 FF
  can0  403   [8]  96 B4 7B 80 52 05 27 FF
  can0  405   [8]  B8 30 89 70 52 05 27 FF
  can0  503   [8]  03 96 D7 80 FC C9 00 00
  can0  501   [8]  01 81 1C 80 28 14 00 00
  can0  505   [8]  05 B8 CF 7F 92 B0 00 00
  can0  401   [8]  81 1D 7F F0 52 05 27 FF
  can0  403   [8]  96 B4 7B 80 52 05 27 FF
  can0  405   [8]  B8 30 89 70 52 05 27 FF
  can0  503   [8]  03 96 D7 7F 1D 39 00 00
  can0  501   [8]  01 81 1C 7F 07 15 00 00
  can0  505   [8]  05 B8 CF 7F 96 5A 00 00
  can0  401   [8]  81 1D 7F F0 52 05 27 FF
  can0  403   [8]  96 B4 7B 80 52 05 27 FF
  can0  405   [8]  B8 30 89 70 52 05 27 FF
  can0  503   [8]  03 96 D7 7F 1C 44 00 00
  can0  501   [8]  01 81 1C 7F E7 0E 00 00
  can0  505   [8]  05 B8 CE 7F F5 8D 00 00
  can0  401   [8]  81 1D 7F F0 52 05 27 FF
  can0  403   [8]  96 B4 7B 80 52 05 27 FF
  can0  405   [8]  B8 30 89 70 52 05 27 FF
  can0  503   [8]  03 96 D7 7E 58 22 00 00
  can0  501   [8]  01 81 1C 80 47 73 00 00
  can0  505   [8]  05 B8 CF 7F C3 9D 00 00
  can0  401   [8]  81 1D 7F F0 52 05 27 FF
  can0  403   [8]  96 B4 7B 80 52 05 27 FF
  can0  405   [8]  B8 30 89 70 52 05 27 FF
  can0  503   [8]  03 96 D7 80 F6 C3 00 00
  can0  501   [8]  01 81 1C 80 27 17 00 00
  can0  505   [8]  05 B8 CE 7F F5 FB 00 00
  can0  401   [8]  81 1D 7F F0 52 05 27 FF
  can0  403   [8]  96 B4 7B 80 52 05 27 FF
  can0  405   [8]  B8 30 89 70 52 05 27 FF
  can0  503   [8]  03 96 D7 81 D6 35 00 00
  can0  501   [8]  01 81 1C 80 26 5B 00 00
  can0  505   [8]  05 B8 CE 7F F4 12 00 00
  can0  401   [8]  81 1D 7F F0 52 05 27 FF
  can0  403   [8]  96 B4 7B 80 52 05 27 FF
  can0  405   [8]  B8 30 89 70 52 05 27 FF
  can0  501   [8]  01 81 1C 80 28 8F 00 00
  can0  503   [8]  03 96 D7 7F 34 D2 00 00
  can0  505   [8]  05 B8 CE 7F F4 43 00 00
  can0  401   [8]  81 1D 7F F0 52 05 27 FF
  can0  403   [8]  96 B4 7B 80 52 05 27 FF
  can0  405   [8]  B8 30 89 70 52 05 27 FF
  can0  501   [8]  01 81 1C 7F E5 F7 00 00
  can0  503   [8]  03 96 D7 80 F2 DD 00 00
  can0  505   [8]  05 B8 CE 7F C5 61 00 00
  can0  401   [8]  81 1D 7F F0 52 05 27 FF
  can0  403   [8]  96 B4 7B 80 52 05 27 FF
  can0  405   [8]  B8 30 89 70 52 05 27 FF
  can0  501   [8]  01 81 1C 7F 06 EF 00 00
  can0  503   [8]  03 96 D7 7F 36 F5 00 00
  can0  505   [8]  05 B8 CE 7F C4 7C 00 00
  can0  401   [8]  81 1D 7F F0 52 05 27 FF
  can0  403   [8]  96 B4 7B 80 52 05 27 FF
  can0  405   [8]  B8 30 89 70 52 05 27 FF
  can0  503   [8]  03 96 D7 81 DE 3A 00 00
  can0  501   [8]  01 81 1C 80 46 5A 00 00
  can0  505   [8]  05 B8 CD 7F C5 26 00 00
  can0  401   [8]  81 1D 7F F0 52 05 27 FF
  can0  403   [8]  96 B4 7B 80 52 05 27 FF
  can0  405   [8]  B8 30 89 70 52 05 27 FF
  can0  501   [8]  01 81 1C 80 27 CF 00 00
  can0  503   [8]  03 96 D7 80 FD F3 00 00
  can0  505   [8]  05 B8 CD 7F C5 BB 00 00
  can0  401   [8]  81 1D 7F F0 52 05 27 FF
  can0  403   [8]  96 B4 7B 80 52 05 27 FF
  can0  405   [8]  B8 30 89 70 52 05 27 FF
  can0  501   [8]  01 81 1C 80 26 8B 00 00
  can0  503   [8]  03 96 D6 7F 3E C3 00 00
  can0  505   [8]  05 B8 CD 7F F4 61 00 00
  can0  401   [8]  81 1D 7F F0 52 05 27 FF
  can0  403   [8]  96 CF 7B 80 52 05 27 FF
  can0  405   [8]  B8 30 89 70 52 05 27 FF
  can0  503   [8]  03 96 D6 7E 5A 0A 00 00
  can0  501   [8]  01 81 1C 80 28 78 00 00
  can0  505   [8]  05 B8 CD 7F F5 E1 00 00
  can0  401   [8]  81 1D 7F F0 52 05 27 FF
  can0  403   [8]  96 CF 7B 80 52 05 27 FF
  can0  405   [8]  B8 30 89 70 52 05 27 FF
  can0  501   [8]  01 81 1C 7F 07 31 00 00
  can0  503   [8]  03 96 D6 7F 17 22 00 00
  can0  505   [8]  05 B8 CD 7F C6 25 00 00
  can0  401   [8]  81 1D 7F F0 52 05 27 FF
  can0  403   [8]  96 CF 7B 80 52 05 27 FF
  can0  405   [8]  B8 30 89 70 52 05 27 FF
  can0  503   [8]  03 96 D6 7F 17 4A 00 00
  can0  501   [8]  01 81 1C 7F C6 7F 00 00
  can0  505   [8]  05 B8 CD 7F C4 76 00 00
  can0  401   [8]  81 1D 7F F0 52 05 27 FF
  can0  403   [8]  96 CF 7B 80 52 05 27 FF
  can0  405   [8]  B8 30 89 70 52 05 27 FF
  can0  501   [8]  01 81 1C 7F 07 C5 00 00
  can0  503   [8]  03 96 D6 7F 1A 87 00 00
  can0  505   [8]  05 B8 CC 7F C6 69 00 00
  can0  401   [8]  81 1D 7F F0 52 05 27 FF
  can0  403   [8]  96 CF 7B 80 52 05 27 FF
  can0  405   [8]  B8 30 89 70 52 05 27 FF
  can0  501   [8]  01 81 1C 80 26 8A 00 00
  can0  503   [8]  03 96 D6 7E 58 76 00 00
  can0  505   [8]  05 B8 CC 7F C7 52 00 00
  can0  401   [8]  81 1D 7F F0 52 05 27 FF
  can0  403   [8]  96 CF 7B 80 52 05 27 FF
  can0  405   [8]  B8 30 89 70 52 05 27 FF
  can0  503   [8]  03 96 D6 7F 19 E7 00 00
  can0  501   [8]  01 81 1C 7F 07 0E 00 00
  can0  505   [8]  05 B8 CC 7F C4 D0 00 00
  can0  401   [8]  81 1D 7F F0 52 05 27 FF
  can0  403   [8]  96 CF 7B 80 52 05 27 FF
  can0  405   [8]  B8 30 89 70 52 05 27 FF
  can0  503   [8]  03 96 D6 80 F7 83 00 00
  can0  501   [8]  01 81 1C 7F C6 6F 00 00
  can0  505   [8]  05 B8 CB 7F C7 A1 00 00
  can0  401   [8]  81 1D 7F F0 52 05 27 FF
  can0  403   [8]  96 CF 7B 80 52 05 27 FF
  can0  405   [8]  B8 30 89 70 52 05 27 FF
  can0  503   [8]  03 96 D6 7F 14 C7 00 00
  can0  501   [8]  01 81 1C 7F 06 73 00 00
  can0  505   [8]  05 B8 CB 7F C4 23 00 00
  can0  401   [8]  81 1D 7F F0 52 05 27 FF
  can0  403   [8]  96 CF 7B 80 52 05 27 FF
  can0  405   [8]  B8 30 89 70 52 05 27 FF
  can0  501   [8]  01 81 1C 7F 07 03 00 00
  can0  503   [8]  03 96 D6 81 D1 17 00 00
  can0  505   [8]  05 B8 CB 7F F6 C2 00 00
  can0  401   [8]  81 1D 7F F0 52 05 27 FF
  can0  403   [8]  96 CF 7B 80 52 05 27 FF
  can0  405   [8]  B8 30 89 70 52 05 27 FF
  can0  503   [8]  03 96 D6 7F 19 8C 00 00
  can0  501   [8]  01 81 1C 7F C7 B0 00 00
  can0  505   [8]  05 B8 CB 7F F4 16 00 00
  can0  401   [8]  81 1D 7F F0 52 05 27 FF
  can0  403   [8]  96 CF 7B 80 52 05 27 FF
  can0  405   [8]  B8 30 89 70 52 05 27 FF
  can0  501   [8]  01 81 1C 7F E7 28 00 00
  can0  503   [8]  03 96 D5 7F 1F 40 00 00
  can0  505   [8]  05 B8 CB 7F F6 70 00 00
  can0  401   [8]  81 1D 7F F0 52 05 27 FF
  can0  403   [8]  96 CF 7B 80 52 05 27 FF
  can0  405   [8]  B8 30 89 70 52 05 27 FF
  can0  503   [8]  03 96 D5 7F 1E F3 00 00
  can0  501   [8]  01 81 1C 7F 06 81 00 00
  can0  505   [8]  05 B8 CB 7F F6 76 00 00
  can0  401   [8]  81 1D 7F F0 52 05 27 FF
  can0  403   [8]  96 CF 7B 80 52 05 27 FF
  can0  405   [8]  B8 30 89 70 52 05 27 FF
  can0  503   [8]  03 96 D5 7F 1A A2 00 00
  can0  501   [8]  01 81 1C 7F E7 21 00 00
  can0  505   [8]  05 B8 CA 7F C5 44 00 00
  can0  401   [8]  81 1D 7F F0 52 05 27 FF
  can0  403   [8]  96 CF 7B 80 52 05 27 FF
  can0  405   [8]  B8 30 89 70 52 05 27 FF
  can0  503   [8]  03 96 D5 80 FA 71 00 00
  can0  501   [8]  01 81 1C 80 27 88 00 00
  can0  505   [8]  05 B8 CA 7F F5 D7 00 00
  can0  401   [8]  81 1D 7F F0 52 05 27 FF
  can0  403   [8]  96 CF 7B 80 52 05 27 FF
  can0  405   [8]  B8 30 89 70 52 05 27 FF
  can0  503   [8]  03 96 D5 7F 1A C5 00 00
  can0  501   [8]  01 81 1C 7F E7 67 00 00
  can0  505   [8]  05 B8 CA 80 74 85 00 00
  can0  401   [8]  81 1D 7F F0 52 05 27 FF
  can0  403   [8]  96 CF 7B 80 52 05 27 FF
  can0  405   [8]  B8 30 89 70 52 05 27 FF
  can0  503   [8]  03 96 D5 7F 3B 48 00 00
  can0  501   [8]  01 81 1C 7F 06 08 00 00
  can0  505   [8]  05 B8 CA 7F 77 35 00 00
  can0  401   [8]  81 1D 7F F0 52 05 27 FF
  can0  403   [8]  96 CF 7B 80 52 05 27 FF
  can0  405   [8]  B8 30 89 70 52 05 27 FF
  can0  501   [8]  01 81 1C 7F C7 E4 00 00
  can0  503   [8]  03 96 D5 7F 3D B2 00 00
  can0  505   [8]  05 B8 C9 7F 97 99 00 00
  can0  401   [8]  81 1D 7F F0 52 05 27 FF
  can0  403   [8]  96 CF 7B 80 52 05 27 FF
  can0  405   [8]  B8 30 89 70 52 05 27 FF
  can0  501   [8]  01 81 1C 7F 07 4B 00 00
  can0  503   [8]  03 96 D5 7E 5B 1B 00 00
  can0  505   [8]  05 B8 C9 80 25 87 00 00
  can0  401   [8]  81 1D 7F F0 52 05 27 FF
  can0  403   [8]  96 CF 7B 80 52 05 27 FF
  can0  405   [8]  B8 30 89 70 52 05 27 FF
  can0  501   [8]  01 81 1C 7F C6 29 00 00
  can0  503   [8]  03 96 D5 7F 1A 5E 00 00
  can0  505   [8]  05 B8 C9 7F 95 5F 00 00
  can0  401   [8]  81 1D 7F F0 52 05 27 FF
  can0  403   [8]  96 CF 7B 80 52 05 27 FF
  can0  405   [8]  B8 30 89 70 52 05 27 FF
  can0  503   [8]  03 96 D5 7F 16 B5 00 00
  can0  501   [8]  01 81 1C 7F 07 3D 00 00
  can0  505   [8]  05 B8 C8 7F C7 79 00 00
  can0  401   [8]  81 1D 7F F0 52 05 27 FF
  can0  403   [8]  96 CF 7B 80 52 05 27 FF
  can0  405   [8]  B8 30 89 70 52 05 27 FF
  can0  501   [8]  01 81 1C 7F 06 60 00 00
  can0  503   [8]  03 96 D5 7F 1A 75 00 00
  can0  505   [8]  05 B8 C8 7F F5 A7 00 00
  can0  401   [8]  81 1D 7F F0 52 05 27 FF
  can0  403   [8]  96 CF 7B 80 52 05 27 FF
  can0  405   [8]  B8 30 89 70 52 05 27 FF
  can0  501   [8]  01 81 1C 7F 07 F5 00 00
  can0  503   [8]  03 96 D5 7F 18 AC 00 00
  can0  505   [8]  05 B8 C8 7F 94 7D 00 00
  can0  401   [8]  81 1D 7F F0 52 05 27 FF
  can0  403   [8]  96 CF 7B 80 52 05 27 FF
  can0  405   [8]  B8 30 89 70 52 05 27 FF
  can0  503   [8]  03 96 D5 7F 17 06 00 00
  can0  501   [8]  01 81 1C 7F 06 F5 00 00
  can0  505   [8]  05 B8 C8 7F C8 3E 00 00
  can0  401   [8]  81 1D 7F F0 52 05 27 FF
  can0  403   [8]  96 CF 7B 80 52 05 27 FF
  can0  405   [8]  B8 30 89 70 52 05 27 FF
  can0  501   [8]  01 81 1C 7F 07 68 00 00
  can0  503   [8]  03 96 D5 80 F6 F3 00 00
  can0  505   [8]  05 B8 C8 80 56 8C 00 00
  can0  401   [8]  81 1D 7F F0 52 05 27 FF
  can0  403   [8]  96 CF 7B 80 52 05 27 FF
  can0  405   [8]  B8 30 89 70 52 05 27 FF
  can0  501   [8]  01 81 1C 80 27 13 00 00
  can0  503   [8]  03 96 D4 80 FD F3 00 00
  can0  505   [8]  05 B8 C8 7F F6 E1 00 00
  can0  401   [8]  81 1D 7F F0 52 05 27 FF
  can0  403   [8]  96 CF 7B 90 52 05 27 FF
  can0  405   [8]  B8 30 89 70 52 05 27 FF
  can0  503   [8]  03 96 D4 7F 3A 36 00 00
  can0  501   [8]  01 81 1C 80 66 3D 00 00
  can0  505   [8]  05 B8 C7 7F C6 09 00 00
  can0  401   [8]  81 1D 7F F0 52 05 27 FF
  can0  403   [8]  96 CF 7B 90 52 05 27 FF
  can0  405   [8]  B8 30 89 70 52 05 27 FF
  can0  501   [8]  01 81 1C 7F E7 E8 00 00
  can0  503   [8]  03 96 D4 80 F9 EC 00 00
  can0  505   [8]  05 B8 C7 7F C5 EF 00 00
  can0  401   [8]  81 1D 7F F0 52 05 27 FF
  can0  403   [8]  96 CF 7B 90 52 05 27 FF
  can0  405   [8]  B8 30 89 70 52 05 27 FF
  can0  503   [8]  03 96 D4 81 DD 93 00 00
  can0  501   [8]  01 81 1C 7F 07 2A 00 00
  can0  505   [8]  05 B8 C7 7F F6 1A 00 00
  can0  401   [8]  81 1D 7F F0 52 05 27 FF
  can0  403   [8]  96 CF 7B 90 52 05 27 FF
  can0  405   [8]  B8 30 89 70 52 05 27 FF
  can0  503   [8]  03 96 D4 80 FC 9F 00 00
  can0  501   [8]  01 81 1C 7F 07 70 00 00
  can0  505   [8]  05 B8 C7 7F C6 D1 00 00
  can0  401   [8]  81 1D 7F F0 52 05 27 FF
  can0  403   [8]  96 CF 7B 90 52 05 27 FF
  can0  405   [8]  B8 30 89 70 52 05 27 FF
  can0  503   [8]  03 96 D4 7F 1C 8C 00 00
  can0  501   [8]  01 81 1C 7F 06 71 00 00
  can0  505   [8]  05 B8 C6 7F 97 82 00 00
  can0  401   [8]  81 1D 7F F0 52 05 27 FF
  can0  403   [8]  96 CF 7B 90 52 05 27 FF
  can0  405   [8]  B8 30 89 70 52 05 27 FF
  can0  501   [8]  01 81 1C 7F 07 D0 00 00
  can0  503   [8]  03 96 D4 7F 40 70 00 00
  can0  505   [8]  05 B8 C6 7F F5 D0 00 00
  can0  401   [8]  81 1D 7F F0 52 05 27 FF
  can0  403   [8]  96 CF 7B 90 52 05 27 FF
  can0  405   [8]  B8 30 89 70 52 05 27 FF
  can0  503   [8]  03 96 D4 7F 1B FD 00 00
  can0  501   [8]  01 81 1C 7F 07 3C 00 00
  can0  505   [8]  05 B8 C6 7F C4 FE 00 00
  can0  401   [8]  81 1D 7F F0 52 05 27 FF
  can0  403   [8]  96 CF 7B 90 52 05 27 FF
  can0  405   [8]  B8 30 89 70 52 05 27 FF
  can0  501   [8]  01 81 1C 7F C6 29 00 00
  can0  503   [8]  03 96 D4 7F 37 34 00 00
  can0  505   [8]  05 B8 C6 7F F7 01 00 00
  can0  401   [8]  81 1D 7F F0 52 05 27 FF
  can0  403   [8]  96 CF 7B 90 52 05 27 FF
  can0  405   [8]  B8 30 89 70 52 05 27 FF
  can0  501   [8]  01 81 1C 80 26 19 00 00
  can0  503   [8]  03 96 D4 7E 58 C1 00 00
  can0  505   [8]  05 B8 C6 7F F5 AB 00 00
  can0  401   [8]  81 1D 7F F0 52 05 27 FF
  can0  403   [8]  96 CF 7B 90 52 05 27 FF
  can0  405   [8]  B8 30 89 70 52 05 27 FF
  can0  503   [8]  03 96 D4 7F 37 AB 00 00
  can0  501   [8]  01 81 1C 80 46 FD 00 00
  can0  505   [8]  05 B8 C6 7F C4 0C 00 00
  can0  401   [8]  81 1D 7F F0 52 05 27 FF
  can0  403   [8]  96 CF 7B 90 52 05 27 FF
  can0  405   [8]  B8 30 89 70 52 05 27 FF
  can0  501   [8]  01 81 1C 80 27 82 00 00
  can0  503   [8]  03 96 D4 7F 19 BE 00 00
  can0  505   [8]  05 B8 C6 80 27 CF 00 00
  can0  401   [8]  81 1D 7F F0 52 05 27 FF
  can0  403   [8]  96 CF 7B 90 52 05 27 FF
  can0  405   [8]  B8 30 89 70 52 05 27 FF
  can0  503   [8]  03 96 D4 7F 17 AC 00 00
  can0  501   [8]  01 81 1C 80 27 D1 00 00
  can0  505   [8]  05 B8 C6 80 75 F4 00 00
  can0  401   [8]  81 1D 7F F0 52 05 27 FF
  can0  403   [8]  96 CF 7B 90 52 05 27 FF
  can0  405   [8]  B8 30 89 70 52 05 27 FF
  can0  501   [8]  01 81 1C 7F 07 43 00 00
  can0  503   [8]  03 96 D3 7F 3E 17 00 00
  can0  505   [8]  05 B8 C6 7F C5 FC 00 00
  can0  401   [8]  81 1D 7F F0 52 05 27 FF
  can0  403   [8]  96 E9 7B 90 52 05 27 FF
  can0  405   [8]  B8 30 89 70 52 05 27 FF
  can0  503   [8]  03 96 D4 7F 3F 2F 00 00
  can0  501   [8]  01 81 1C 7F 06 99 00 00
  can0  505   [8]  05 B8 C5 7F 76 1C 00 00
  can0  401   [8]  81 1D 7F F0 52 05 27 FF
  can0  403   [8]  96 E9 7B 90 52 05 27 FF
  can0  405   [8]  B8 30 89 70 52 05 27 FF
  can0  501   [8]  01 81 1C 7F E7 06 00 00
  can0  503   [8]  03 96 D3 7F 3A 63 00 00
  can0  505   [8]  05 B8 C5 7F C7 04 00 00
  can0  401   [8]  81 1D 7F F0 52 05 27 FF
  can0  403   [8]  96 E9 7B 90 52 05 27 FF
  can0  405   [8]  B8 30 89 70 52 05 27 FF
  can0  503   [8]  03 96 D3 7F 3A 0C 00 00
  can0  501   [8]  01 81 1C 7F 06 A4 00 00
  can0  505   [8]  05 B8 C5 7F F4 D8 00 00
  can0  401   [8]  81 1D 7F F0 52 05 27 FF
  can0  403   [8]  96 E9 7B 90 52 05 27 FF
  can0  405   [8]  B8 30 89 70 52 05 27 FF
  can0  501   [8]  01 81 1C 7F 07 19 00 00
  can0  503   [8]  03 96 D3 7F 35 92 00 00
  can0  505   [8]  05 B8 C5 7F F6 8B 00 00
  can0  401   [8]  81 1D 7F F0 52 05 27 FF
  can0  403   [8]  96 E9 7B 90 52 05 27 FF
  can0  405   [8]  B8 30 89 70 52 05 27 FF
  can0  503   [8]  03 96 D3 7F 35 64 00 00
  can0  501   [8]  01 81 1C 80 26 80 00 00
  can0  505   [8]  05 B8 C5 80 56 B2 00 00
  can0  401   [8]  81 1D 7F F0 52 05 27 FF
  can0  403   [8]  96 E9 7B 90 52 05 27 FF
  can0  405   [8]  B8 30 89 70 52 05 27 FF
  can0  503   [8]  03 96 D3 80 F5 E3 00 00
  can0  501   [8]  01 81 1C 7F 07 C3 00 00
  can0  505   [8]  05 B8 C5 7F F5 78 00 00
  can0  401   [8]  81 1D 7F F0 52 05 27 FF
  can0  403   [8]  96 E9 7B 90 52 05 27 FF
  can0  405   [8]  B8 30 89 70 52 05 27 FF
  can0  503   [8]  03 96 D3 80 F6 C2 00 00
  can0  501   [8]  01 81 1C 7F 07 EC 00 00
  can0  505   [8]  05 B8 C4 7F 96 50 00 00
  can0  401   [8]  81 1D 7F F0 52 05 27 FF
  can0  403   [8]  96 E9 7B 90 52 05 27 FF
  can0  405   [8]  B8 30 89 70 52 05 27 FF
  can0  503   [8]  03 96 D3 7F 1A 91 00 00
  can0  501   [8]  01 81 1C 80 46 72 00 00
  can0  505   [8]  05 B8 C4 80 58 40 00 00
  can0  401   [8]  81 1D 7F F0 52 05 27 FF
  can0  403   [8]  96 E9 7B 90 52 05 27 FF
  can0  405   [8]  B8 30 89 70 52 05 27 FF
  can0  501   [8]  01 81 1C 80 27 9E 00 00
  can0  503   [8]  03 96 D3 80 FC 74 00 00
  can0  505   [8]  05 B8 C4 7F C6 D4 00 00
  can0  401   [8]  81 1D 7F F0 52 05 27 FF
  can0  403   [8]  96 E9 7B 90 52 05 27 FF
  can0  405   [8]  B8 30 89 70 52 05 27 FF
  can0  503   [8]  03 96 D3 7F 1F 93 00 00
  can0  501   [8]  01 81 1C 7F E7 78 00 00
  can0  505   [8]  05 B8 C4 7F C7 23 00 00
  can0  401   [8]  81 1D 7F F0 52 05 27 FF
  can0  403   [8]  96 E9 7B 90 52 05 27 FF
  can0  405   [8]  B8 30 89 70 52 05 27 FF
  can0  501   [8]  01 81 1C 7F 06 61 00 00
  can0  503   [8]  03 96 D3 7F 1F E6 00 00
  can0  505   [8]  05 B8 C4 7F C5 76 00 00
  can0  401   [8]  81 1D 7F F0 52 05 27 FF
  can0  403   [8]  96 E9 7B 90 52 05 27 FF
  can0  405   [8]  B8 30 89 70 52 05 27 FF
  can0  503   [8]  03 96 D3 7F 1E 38 00 00
  can0  501   [8]  01 81 1C 7F 06 E9 00 00
  can0  505   [8]  05 B8 C4 7F C6 F6 00 00
  can0  401   [8]  81 1D 7F F0 52 05 27 FF
  can0  403   [8]  96 E9 7B 90 52 05 27 FF
  can0  405   [8]  B8 30 89 70 52 05 27 FF
  can0  503   [8]  03 96 D3 7F 1C 15 00 00
  can0  501   [8]  01 81 1C 7F E7 5D 00 00
  can0  505   [8]  05 B8 C3 7F F6 0B 00 00
  can0  401   [8]  81 1D 7F F0 52 05 27 FF
  can0  403   [8]  96 E9 7B 90 52 05 27 FF
  can0  405   [8]  B8 30 89 70 52 05 27 FF
  can0  501   [8]  01 81 1C 7F E5 83 00 00
  can0  503   [8]  03 96 D3 7F 38 CF 00 00
  can0  505   [8]  05 B8 C3 7F C6 3C 00 00
  can0  401   [8]  81 1D 7F F0 52 05 27 FF
  can0  403   [8]  96 E9 7B 90 52 05 27 FF
  can0  405   [8]  B8 30 89 70 52 05 27 FF
  can0  503   [8]  03 96 D3 7F 37 34 00 00
  can0  501   [8]  01 81 1C 7F E6 DB 00 00
  can0  505   [8]  05 B8 C3 7F C5 64 00 00
  can0  401   [8]  81 1D 7F F0 52 05 27 FF
  can0  403   [8]  96 E9 7B 90 52 05 27 FF
  can0  405   [8]  B8 30 89 70 52 05 27 FF
  can0  501   [8]  01 81 1C 7F 06 73 00 00
  can0  503   [8]  03 96 D3 7F 15 2A 00 00
  can0  505   [8]  05 B8 C3 7F F4 DE 00 00
  can0  401   [8]  81 1D 7F F0 52 05 27 FF
  can0  403   [8]  96 E9 7B 90 52 05 27 FF
  can0  405   [8]  B8 30 89 70 52 05 27 FF
  can0  501   [8]  01 81 1C 80 26 FE 00 00
  can0  503   [8]  03 96 D2 7F 1D 48 00 00
  can0  505   [8]  05 B8 C3 7F F7 C8 00 00
  can0  401   [8]  81 1D 7F F0 52 05 27 FF
  can0  403   [8]  96 E9 7B 90 52 05 27 FF
  can0  405   [8]  B8 30 89 70 52 05 27 FF
  can0  501   [8]  01 81 1C 7F E7 72 00 00
  can0  503   [8]  03 96 D2 7F 3E 21 00 00
  can0  505   [8]  05 B8 C3 7F F6 AC 00 00
  can0  401   [8]  81 1D 7F F0 52 05 27 FF
  can0  403   [8]  96 E9 7B 90 52 05 27 FF
  can0  405   [8]  B8 30 89 70 52 05 27 FF
  can0  503   [8]  03 96 D2 80 FC 11 00 00
  can0  501   [8]  01 81 1C 80 27 08 00 00
  can0  505   [8]  05 B8 C3 7F 96 17 00 00
  can0  401   [8]  81 1D 7F F0 52 05 27 FF
  can0  403   [8]  96 E9 7B 90 52 05 27 FF
  can0  405   [8]  B8 30 89 70 52 05 27 FF
  can0  501   [8]  01 81 1C 80 27 EB 00 00
  can0  503   [8]  03 96 D3 81 DC D5 00 00
  can0  505   [8]  05 B8 C3 80 24 D1 00 00
  can0  401   [8]  81 1D 7F F0 52 05 27 FF
  can0  403   [8]  96 E9 7B 90 52 05 27 FF
  can0  405   [8]  B8 30 89 70 52 05 27 FF
  can0  503   [8]  03 96 D2 7F 1B 0F 00 00
  can0  501   [8]  01 81 1C 80 26 BC 00 00
  can0  505   [8]  05 B8 C3 7F C6 C6 00 00
  can0  401   [8]  81 1D 7F F0 52 05 27 FF
  can0  403   [8]  96 E9 7B 90 52 05 27 FF
  can0  405   [8]  B8 30 89 70 52 05 27 FF
  can0  501   [8]  01 81 1C 7F 07 E4 00 00
  can0  503   [8]  03 96 D2 7F 3B 18 00 00
  can0  505   [8]  05 B8 C2 7F C7 56 00 00
  can0  401   [8]  81 1D 7F F0 52 05 27 FF
  can0  403   [8]  96 E9 7B 90 52 05 27 FF
  can0  405   [8]  B8 30 89 70 52 05 27 FF
  can0  501   [8]  01 81 1C 7F 06 F8 00 00
  can0  503   [8]  03 96 D2 7F 38 F2 00 00
  can0  505   [8]  05 B8 C3 7F C6 28 00 00
  can0  401   [8]  81 1D 7F F0 52 05 27 FF
  can0  403   [8]  96 E9 7B 90 52 05 27 FF
  can0  405   [8]  B8 30 89 70 52 05 27 FF
  can0  503   [8]  03 96 D2 7F 38 4C 00 00
  can0  501   [8]  01 81 1C 80 27 32 00 00
  can0  505   [8]  05 B8 C3 7F F6 EF 00 00
  can0  401   [8]  81 1D 7F F0 52 05 27 FF
  can0  403   [8]  96 E9 7B 90 52 05 27 FF
  can0  405   [8]  B8 30 89 70 52 05 27 FF
  can0  503   [8]  03 96 D2 7F 19 AF 00 00
  can0  501   [8]  01 81 1C 7F E6 EE 00 00
  can0  505   [8]  05 B8 C3 7F F6 36 00 00
  can0  401   [8]  81 1D 7F F0 52 05 27 FF
  can0  403   [8]  96 E9 7B 90 52 05 27 FF
  can0  405   [8]  B8 30 89 70 52 05 27 FF
  can0  503   [8]  03 96 D2 7F 18 5A 00 00
  can0  501   [8]  01 81 1C 7F E6 94 00 00
  can0  505   [8]  05 B8 C2 7F C7 A5 00 00
  can0  401   [8]  81 1D 7F F0 52 05 27 FF
  can0  403   [8]  96 E9 7B 90 52 05 27 FF
  can0  405   [8]  B8 30 89 70 52 05 27 FF
  can0  503   [8]  03 96 D2 80 FA 54 00 00
  can0  501   [8]  01 81 1C 80 27 6E 00 00
  can0  505   [8]  05 B8 C2 7F F6 B7 00 00

