 FF
  can0  405   [8]  8E B3 7F E0 52 33 37 FF
  can0  503   [8]  03 97 34 7F 3F 6F 00 00
  can0  501   [8]  01 80 81 7F C8 0B 00 00
  can0  505   [8]  05 8F 56 7F C7 A7 00 00
  can0  401   [8]  80 81 7F F0 52 33 37 FF
  can0  403   [8]  96 DE 80 30 52 33 37 FF
  can0  405   [8]  8E B3 7F E0 52 33 37 FF
  can0  503   [8]  03 97 34 7F 3E 01 00 00
  can0  501   [8]  01 80 81 7F C7 AD 00 00
  can0  505   [8]  05 8F 56 7F F8 2E 00 00
  can0  401   [8]  80 81 7F F0 52 33 37 FF
  can0  403   [8]  96 DE 80 30 52 33 37 FF
  can0  405   [8]  8E B3 7F E0 52 33 37 FF
  can0  503   [8]  03 97 34 7E 62 0A 00 00
  can0  501   [8]  01 80 81 7F E7 2D 00 00
  can0  505   [8]  05 8F 56 7F C7 FE 00 00
  can0  401   [8]  80 81 7F F0 52 33 37 FF
  can0  403   [8]  96 F8 80 30 52 33 37 FF
  can0  405   [8]  8E B3 7F E0 52 33 37 FF
  can0  503   [8]  03 97 34 7F 1B BF 00 00
  can0  501   [8]  01 80 81 7F 06 7C 00 00
  can0  505   [8]  05 8F 56 7F F7 B9 00 00
  can0  401   [8]  80 81 7F F0 52 33 37 FF
  can0  403   [8]  96 F8 80 30 52 33 37 FF
  can0  405   [8]  8E B3 7F E0 52 33 37 FF
  can0  503   [8]  03 97 34 7F 1B 83 00 00
  can0  501   [8]  01 80 81 7F 06 E8 00 00
  can0  505   [8]  05 8F 56 7F 98 F3 00 00
  can0  401   [8]  80 81 7F F0 52 33 37 FF
  can0  403   [8]  96 F8 80 30 52 33 37 FF
  can0  405   [8]  8E B3 7F E0 52 33 37 FF
  can0  503   [8]  03 97 34 7F 3F 5E 00 00
  can0  501   [8]  01 80 81 7F 07 1C 00 00
  can0  505   [8]  05 8F 56 7F F7 D3 00 00
  can0  401   [8]  80 81 7F F0 52 33 37 FF
  can0  403   [8]  96 F8 80 30 52 33 37 FF
  can0  405   [8]  8E B3 7F E0 52 33 37 FF
  can0  503   [8]  03 97 34 7F 1B D4 00 00
  can0  501   [8]  01 80 81 7F 07 BD 00 00
  can0  505   [8]  05 8F 56 7F F7 A2 00 00
  can0  401   [8]  80 81 7F F0 52 33 37 FF
  can0  403   [8]  96 F8 80 30 52 33 37 FF
  can0  405   [8]  8E B3 7F E0 52 33 37 FF
  can0  503   [8]  03 97 34 7F 22 DE 00 00
  can0  501   [8]  01 80 81 7F A6 EA 00 00
  can0  505   [8]  05 8F 56 7F C6 AB 00 00
  can0  401   [8]  80 81 7F F0 52 33 37 FF
  can0  403   [8]  96 F8 80 30 52 33 37 FF
  can0  405   [8]  8E B3 7F E0 52 33 37 FF
  can0  503   [8]  03 97 34 7F 3E 0B 00 00
  can0  501   [8]  01 80 81 80 27 0D 00 00
  can0  505   [8]  05 8F 56 7F 9A FD 00 00
  can0  401   [8]  80 81 7F F0 52 33 37 FF
  can0  403   [8]  96 F8 80 30 52 33 37 FF
  can0  405   [8]  8E B3 7F E0 52 33 37 FF
  can0  503   [8]  03 97 34 7F 3D 3A 00 00
  can0  501   [8]  01 80 81 7F 08 63 00 00
  can0  505   [8]  05 8F 56 7F F8 0A 00 00
  can0  401   [8]  80 81 7F F0 52 33 37 FF
  can0  403   [8]  96 F8 80 30 52 33 37 FF
  can0  405   [8]  8E 99 7F E0 52 33 37 FF
  can0  503   [8]  03 97 34 7F 40 CB 00 00
  can0  501   [8]  01 80 81 7F E7 DE 00 00
  can0  505   [8]  05 8F 56 7F F6 C7 00 00
  can0  401   [8]  80 81 7F F0 52 33 37 FF
  can0  403   [8]  96 F8 80 30 52 33 37 FF
  can0  405   [8]  8E 99 7F E0 52 33 37 FF
  can0  503   [8]  03 97 34 7F 20 7B 00 00
  can0  501   [8]  01 80 81 7F 07 D8 00 00
  can0  505   [8]  05 8F 56 80 28 70 00 00
  can0  401   [8]  80 81 7F F0 52 33 37 FF
  can0  403   [8]  96 F8 80 40 52 33 37 FF
  can0  405   [8]  8E 99 7F E0 52 33 37 FF
  can0  503   [8]  03 97 34 7F 20 37 00 00
  can0  501   [8]  01 80 81 80 27 5B 00 00
  can0  505   [8]  05 8F 56 7F C7 4F 00 00
  can0  401   [8]  80 81 7F F0 52 33 37 FF
  can0  403   [8]  96 F8 80 40 52 33 37 FF
  can0  405   [8]  8E 99 7F E0 52 33 37 FF
  can0  503   [8]  03 97 34 7F 1E 8E 00 00
  can0  501   [8]  01 80 81 80 27 76 00 00
  can0  505   [8]  05 8F 56 7F C9 30 00 00
  can0  401   [8]  80 81 7F F0 52 33 37 FF
  can0  403   [8]  96 F8 80 40 52 33 37 FF
  can0  405   [8]  8E 99 7F E0 52 33 37 FF
  can0  503   [8]  03 97 35 80 F8 A6 00 00
  can0  501   [8]  01 80 81 80 27 94 00 00
  can0  505   [8]  05 8F 56 80 28 60 00 00
  can0  401   [8]  80 81 7F F0 52 33 37 FF
  can0  403   [8]  96 F8 80 40 52 33 37 FF
  can0  405   [8]  8E 99 7F E0 52 33 37 FF
  can0  503   [8]  03 97 34 81 E3 E0 00 00
  can0  501   [8]  01 80 81 7F E8 00 00 00
  can0  505   [8]  05 8F 56 7F C7 2D 00 00
  can0  401   [8]  80 81 7F F0 52 33 37 FF
  can0  403   [8]  96 F8 80 40 52 33 37 FF
  can0  405   [8]  8E 99 7F E0 52 33 37 FF
  can0  503   [8]  03 97 34 7F 38 9F 00 00
  can0  501   [8]  01 80 81 80 27 23 00 00
  can0  505   [8]  05 8F 56 7F F5 80 00 00
  can0  401   [8]  80 81 7F F0 52 33 37 FF
  can0  403   [8]  96 F8 80 40 52 33 37 FF
  can0  405   [8]  8E 99 7F E0 52 33 37 FF
  can0  503   [8]  03 97 34 81 E5 9B 00 00
  can0  501   [8]  01 80 81 80 47 46 00 00
  can0  505   [8]  05 8F 56 7F F9 DF 00 00
  can0  401   [8]  80 81 7F F0 52 33 37 FF
  can0  403   [8]  96 F8 80 40 52 33 37 FF
  can0  405   [8]  8E 99 7F E0 52 33 37 FF
  can0  503   [8]  03 97 34 7E 5F 1E 00 00
  can0  501   [8]  01 80 81 7F E6 AA 00 00
  can0  505   [8]  05 8F 56 7F FA 6D 00 00
  can0  401   [8]  80 81 7F F0 52 33 37 FF
  can0  403   [8]  96 F8 80 40 52 33 37 FF
  can0  405   [8]  8E 99 7F E0 52 33 37 FF
  can0  501   [8]  01 80 81 80 27 66 00 00
  can0  503   [8]  03 97 34 7F 1C 48 00 00
  can0  505   [8]  05 8F 56 7F 78 1B 00 00
  can0  401   [8]  80 81 7F F0 52 33 37 FF
  can0  403   [8]  96 F8 80 40 52 33 37 FF
  can0  405   [8]  8E 99 7F E0 52 33 37 FF
  can0  503   [8]  03 97 35 80 FB 18 00 00
  can0  501   [8]  01 80 81 7F E6 63 00 00
  can0  505   [8]  05 8F 56 7F F8 14 00 00
  can0  401   [8]  80 81 7F F0 52 33 37 FF
  can0  403   [8]  96 F8 80 40 52 33 37 FF
  can0  405   [8]  8E 99 7F E0 52 33 37 FF
  can0  503   [8]  03 97 34 7F 23 01 00 00
  can0  501   [8]  01 80 81 7F C8 FD 00 00
  can0  505   [8]  05 8F 56 7F C7 26 00 00
  can0  401   [8]  80 81 7F F0 52 33 37 FF
  can0  403   [8]  96 F8 80 40 52 33 37 FF
  can0  405   [8]  8E 99 7F E0 52 33 37 FF
  can0  501   [8]  01 80 81 7F 06 9D 00 00
  can0  503   [8]  03 97 34 7F 41 6B 00 00
  can0  505   [8]  05 8F 56 7F F7 15 00 00
  can0  401   [8]  80 81 7F F0 52 33 37 FF
  can0  403   [8]  96 F8 80 40 52 33 37 FF
  can0  405   [8]  8E 99 7F E0 52 33 37 FF
  can0  501   [8]  01 80 81 7F 07 CC 00 00
  can0  503   [8]  03 97 34 7F 20 BD 00 00
  can0  505   [8]  05 8F 56 80 27 78 00 00
  can0  401   [8]  80 81 7F F0 52 33 37 FF
  can0  403   [8]  96 F8 80 40 52 33 37 FF
  can0  405   [8]  8E 99 7F E0 52 33 37 FF
  can0  503   [8]  03 97 34 80 FD 0E 00 00
  can0  501   [8]  01 80 81 80 27 9D 00 00
  can0  505   [8]  05 8F 56 80 29 2A 00 00
  can0  401   [8]  80 81 7F F0 52 33 37 FF
  can0  403   [8]  96 F8 80 40 52 33 37 FF
  can0  405   [8]  8E 99 7F E0 52 33 37 FF
  can0  503   [8]  03 97 34 7F 24 C9 00 00
  can0  501   [8]  01 80 81 7F 07 96 00 00
  can0  505   [8]  05 8F 56 7F F9 7C 00 00
  can0  401   [8]  80 81 7F F0 52 33 37 FF
  can0  403   [8]  96 F8 80 40 52 33 37 FF
  can0  405   [8]  8E 99 7F E0 52 33 37 FF
  can0  501   [8]  01 80 81 7F E7 C4 00 00
  can0  503   [8]  03 97 34 80 00 EF 00 00
  can0  505   [8]  05 8F 56 7F F9 A3 00 00
  can0  401   [8]  80 81 7F F0 52 33 37 FF
  can0  403   [8]  96 F8 80 40 52 33 37 FF
  can0  405   [8]  8E 99 7F E0 52 33 37 FF
  can0  503   [8]  03 97 34 7F 21 E7 00 00
  can0  501   [8]  01 80 81 7F C6 C1 00 00
  can0  505   [8]  05 8F 56 80 27 BC 00 00
  can0  401   [8]  80 81 7F F0 52 33 37 FF
  can0  403   [8]  96 F8 80 40 52 33 37 FF
  can0  405   [8]  8E 99 7F E0 52 33 37 FF
  can0  503   [8]  03 97 34 7F 21 D0 00 00
  can0  501   [8]  01 80 81 7F E6 E1 00 00
  can0  505   [8]  05 8F 56 7F F8 D5 00 00
  can0  401   [8]  80 81 7F F0 52 33 37 FF
  can0  403   [8]  97 12 80 40 52 33 37 FF
  can0  405   [8]  8E 99 7F E0 52 33 37 FF
  can0  501   [8]  01 80 81 7F 07 A2 00 00
  can0  503   [8]  03 97 35 7E 5D 15 00 00
  can0  505   [8]  05 8F 56 7F C8 82 00 00
  can0  401   [8]  80 81 7F F0 52 33 37 FF
  can0  403   [8]  97 12 80 40 52 33 37 FF
  can0  405   [8]  8E 99 7F E0 52 33 37 FF
  can0  503   [8]  03 97 34 7F 22 BC 00 00
  can0  501   [8]  01 80 81 7F E7 BD 00 00
  can0  505   [8]  05 8F 56 7F F6 96 00 00
  can0  401   [8]  80 81 7F F0 52 33 37 FF
  can0  403   [8]  97 12 80 40 52 33 37 FF
  can0  405   [8]  8E 99 7F E0 52 33 37 FF
  can0  501   [8]  01 80 81 7F 07 94 00 00
  can0  503   [8]  03 97 34 7F 21 72 00 00
  can0  505   [8]  05 8F 56 80 58 23 00 00
  can0  401   [8]  80 81 7F F0 52 33 37 FF
  can0  403   [8]  97 12 80 40 52 33 37 FF
  can0  405   [8]  8E 99 7F E0 52 33 37 FF
  can0  501   [8]  01 80 81 7F 06 F2 00 00
  can0  503   [8]  03 97 34 80 FC 9E 00 00
  can0  505   [8]  05 8F 56 7F FB 7E 00 00
  can0  401   [8]  80 81 7F F0 52 33 37 FF
  can0  403   [8]  97 12 80 40 52 33 37 FF
  can0  405   [8]  8E 99 7F E0 52 33 37 FF
  can0  503   [8]  03 97 34 7F 19 E5 00 00
  can0  501   [8]  01 80 81 80 28 06 00 00
  can0  505   [8]  05 8F 56 7F C7 72 00 00
  can0  401   [8]  80 81 7F F0 52 33 37 FF
  can0  403   [8]  97 12 80 40 52 33 37 FF
  can0  405   [8]  8E 99 7F E0 52 33 37 FF
  can0  503   [8]  03 97 34 7F 24 21 00 00
  can0  501   [8]  01 80 81 7F 08 4C 00 00
  can0  505   [8]  05 8F 56 7F F8 39 00 00
  can0  401   [8]  80 81 7F F0 52 33 37 FF
  can0  403   [8]  97 12 80 40 52 33 37 FF
  can0  405   [8]  8E 99 7F E0 52 33 37 FF
  can0  503   [8]  03 97 34 7F 26 2F 00 00
  can0  501   [8]  01 80 81 7F E8 19 00 00
  can0  505   [8]  05 8F 56 7F F8 FA 00 00
  can0  401   [8]  80 81 7F F0 52 33 37 FF
  can0  403   [8]  97 12 80 40 52 33 37 FF
  can0  405   [8]  8E 99 7F E0 52 33 37 FF
  can0  501   [8]  01 80 81 7F 07 8B 00 00
  can0  503   [8]  03 97 35 7F 19 6F 00 00
  can0  505   [8]  05 8F 56 7F F6 13 00 00
  can0  401   [8]  80 81 7F F0 52 33 37 FF
  can0  403   [8]  97 12 80 40 52 33 37 FF
  can0  405   [8]  8E 99 7F E0 52 33 37 FF
  can0  503   [8]  03 97 34 7F 22 0A 00 00
  can0  501   [8]  01 80 81 7F C6 72 00 00
  can0  505   [8]  05 8F 56 7F F8 BB 00 00
  can0  401   [8]  80 81 7F F0 52 33 37 FF
  can0  403   [8]  97 12 80 40 52 33 37 FF
  can0  405   [8]  8E 99 7F E0 52 33 37 FF
  can0  501   [8]  01 80 81 7F 07 46 00 00
  can0  503   [8]  03 97 34 7F 42 45 00 00
  can0  505   [8]  05 8F 56 7F C8 CD 00 00
  can0  401   [8]  80 81 7F F0 52 33 37 FF
  can0  403   [8]  97 12 80 40 52 33 37 FF
  can0  405   [8]  8E 99 7F E0 52 33 37 FF
  can0  501   [8]  01 80 81 7F 08 86 00 00
  can0  503   [8]  03 97 34 7F 38 C4 00 00
  can0  505   [8]  05 8F 56 7F 46 D7 00 00
  can0  401   [8]  80 81 7F F0 52 33 37 FF
  can0  403   [8]  97 12 80 40 52 33 37 FF
  can0  405   [8]  8E 99 7F E0 52 33 37 FF
  can0  503   [8]  03 97 34 7F 39 19 00 00
  can0  501   [8]  01 80 81 80 48 14 00 00
  can0  505   [8]  05 8F 56 7F F5 87 00 00
  can0  401   [8]  80 81 7F F0 52 33 37 FF
  can0  403   [8]  97 12 80 40 52 33 37 FF
  can0  405   [8]  8E 99 7F E0 52 33 37 FF
  can0  501   [8]  01 80 81 80 28 83 00 00
  can0  503   [8]  03 97 34 7F 1C E3 00 00
  can0  505   [8]  05 8F 56 7F F7 CE 00 00
  can0  401   [8]  80 81 7F F0 52 33 37 FF
  can0  403   [8]  97 12 80 40 52 33 37 FF
  can0  405   [8]  8E 99 7F E0 52 33 37 FF
  can0  503   [8]  03 97 34 7F 27 4B 00 00
  can0  501   [8]  01 80 81 7F 08 45 00 00
  can0  505   [8]  05 8F 56 7F C7 33 00 00
  can0  401   [8]  80 81 7F F0 52 33 37 FF
  can0  403   [8]  97 12 80 40 52 33 37 FF
  can0  405   [8]  8E 99 7F E0 52 33 37 FF
  can0  503   [8]  03 97 34 7F 22 C2 00 00
  can0  501   [8]  01 80 81 7F 07 98 00 00
  can0  505   [8]  05 8F 56 7F F5 DB 00 00
  can0  401   [8]  80 81 7F F0 52 33 37 FF
  can0  403   [8]  97 12 80 40 52 33 37 FF
  can0  405   [8]  8E 99 7F E0 52 33 37 FF
  can0  503   [8]  03 97 34 7F 1D 3C 00 00
  can0  501   [8]  01 80 81 7F C6 69 00 00
  can0  505   [8]  05 8F 56 80 2A 79 00 00
  can0  401   [8]  80 81 7F F0 52 33 37 FF
  can0  403   [8]  97 12 80 40 52 33 37 FF
  can0  405   [8]  8E 99 7F E0 52 33 37 FF
  can0  503   [8]  03 97 34 7F 26 57 00 00
  can0  501   [8]  01 80 81 80 27 70 00 00
  can0  505   [8]  05 8F 56 80 28 6F 00 00
  can0  401   [8]  80 81 7F F0 52 33 37 FF
  can0  403   [8]  97 12 80 40 52 33 37 FF
  can0  405   [8]  8E 99 7F E0 52 33 37 FF
  can0  501   [8]  01 80 81 7F 09 18 00 00
  can0  503   [8]  03 97 34 7F 21 65 00 00
  can0  505   [8]  05 8F 56 80 28 3F 00 00
  can0  401   [8]  80 81 7F F0 52 33 37 FF
  can0  403   [8]  97 12 80 40 52 33 37 FF
  can0  405   [8]  8E 99 7F E0 52 33 37 FF
  can0  503   [8]  03 97 34 7E 57 A9 00 00
  can0  501   [8]  01 80 81 7F 08 0D 00 00
  can0  505   [8]  05 8F 56 80 28 E4 00 00
  can0  401   [8]  80 81 7F F0 52 33 37 FF
  can0  403   [8]  97 12 80 40 52 33 37 FF
  can0  405   [8]  8E 99 7F E0 52 33 37 FF
  can0  501   [8]  01 80 81 7F E7 AE 00 00
  can0  503   [8]  03 97 34 7F 19 ED 00 00
  can0  505   [8]  05 8F 56 80 28 F4 00 00
  can0  401   [8]  80 81 7F F0 52 33 37 FF
  can0  403   [8]  97 12 80 40 52 33 37 FF
  can0  405   [8]  8E 99 7F E0 52 33 37 FF
  can0  503   [8]  03 97 34 7F 22 12 00 00
  can0  501   [8]  01 80 81 7F 08 04 00 00
  can0  505   [8]  05 8F 56 7F F8 1F 00 00
  can0  401   [8]  80 81 7F F0 52 33 37 FF
  can0  403   [8]  97 2C 80 40 52 33 37 FF
  can0  405   [8]  8E 99 7F E0 52 33 37 FF
  can0  503   [8]  03 97 35 7F 42 54 00 00
  can0  501   [8]  01 80 81 7F E7 CF 00 00
  can0  505   [8]  05 8F 56 80 28 CE 00 00
  can0  401   [8]  80 81 7F F0 52 33 37 FF
  can0  403   [8]  97 2C 80 50 52 33 37 FF
  can0  405   [8]  8E 99 7F E0 52 33 37 FF
  can0  503   [8]  03 97 34 7F 1E AF 00 00
  can0  501   [8]  01 80 81 7F 07 6C 00 00
  can0  505   [8]  05 8F 56 7F C5 DF 00 00
  can0  401   [8]  80 81 7F F0 52 33 37 FF
  can0  403   [8]  97 2C 80 50 52 33 37 FF
  can0  405   [8]  8E 99 7F E0 52 33 37 FF
  can0  503   [8]  03 97 34 80 FD 43 00 00
  can0  501   [8]  01 80 81 7F 07 B2 00 00
  can0  505   [8]  05 8F 56 7F C7 C3 00 00
  can0  401   [8]  80 81 7F F0 52 33 37 FF
  can0  403   [8]  97 2C 80 50 52 33 37 FF
  can0  405   [8]  8E 99 7F E0 52 33 37 FF
  can0  501   [8]  01 80 81 80 28 24 00 00
  can0  503   [8]  03 97 34 80 03 F8 00 00
  can0  505   [8]  05 8F 56 7F F8 E2 00 00
  can0  401   [8]  80 81 7F F0 52 33 37 FF
  can0  403   [8]  97 2C 80 50 52 33 37 FF
  can0  405   [8]  8E 99 7F E0 52 33 37 FF
  can0  503   [8]  03 97 35 80 04 23 00 00
  can0  501   [8]  01 80 81 7F E7 78 00 00
  can0  505   [8]  05 8F 56 7F F8 53 00 00
  can0  401   [8]  80 81 7F F0 52 33 37 FF
  can0  403   [8]  97 2C 80 50 52 33 37 FF
  can0  405   [8]  8E 99 7F E0 52 33 37 FF
  can0  503   [8]  03 97 34 80 FF C7 00 00
  can0  501   [8]  01 80 81 7F 05 E8 00 00
  can0  505   [8]  05 8F 56 7F C8 2C 00 00
  can0  401   [8]  80 81 7F F0 52 33 37 FF
  can0  403   [8]  97 2C 80 50 52 33 37 FF
  can0  405   [8]  8E 99 7F E0 52 33 37 FF
  can0  503   [8]  03 97 34 7F 1F 3D 00 00
  can0  501   [8]  01 80 81 7F 09 00 00 00
  can0  505   [8]  05 8F 56 7F C6 B0 00 00
  can0  401   [8]  80 81 7F F0 52 33 37 FF
  can0  403   [8]  97 2C 80 50 52 33 37 FF
  can0  405   [8]  8E 99 7F E0 52 33 37 FF
  can0  503   [8]  03 97 35 7F 40 48 00 00
  can0  501   [8]  01 80 81 7F E8 58 00 00
  can0  505   [8]  05 8F 56 80 28 DD 00 00
  can0  401   [8]  80 81 7F F0 52 33 37 FF
  can0  403   [8]  97 2C 80 50 52 33 37 FF
  can0  405   [8]  8E 99 7F E0 52 33 37 FF
  can0  501   [8]  01 80 81 7F 07 1B 00 00
  can0  503   [8]  03 97 34 7F 23 8D 00 00
  can0  505   [8]  05 8F 56 7F F5 DF 00 00
  can0  401   [8]  80 81 7F F0 52 33 37 FF
  can0  403   [8]  97 2C 80 50 52 33 37 FF
  can0  405   [8]  8E 99 7F E0 52 33 37 FF
  can0  503   [8]  03 97 34 7F 21 6F 00 00
  can0  501   [8]  01 80 81 80 26 88 00 00
  can0  505   [8]  05 8F 56 7F C5 F6 00 00
  can0  401   [8]  80 81 7F F0 52 33 37 FF
  can0  403   [8]  97 2C 80 50 52 33 37 FF
  can0  405   [8]  8E 99 7F E0 52 33 37 FF
  can0  503   [8]  03 97 34 7F 39 C7 00 00
  can0  501   [8]  01 80 81 80 28 35 00 00
  can0  505   [8]  05 8F 56 7F F7 11 00 00
  can0  401   [8]  80 81 7F F0 52 33 37 FF
  can0  403   [8]  97 2C 80 50 52 33 37 FF
  can0  405   [8]  8E 99 7F E0 52 33 37 FF
  can0  503   [8]  03 97 34 7F 1F 58 00 00
  can0  501   [8]  01 80 81 7F E8 9A 00 00
  can0  505   [8]  05 8F 56 7F F9 C3 00 00
  can0  401   [8]  80 81 7F F0 52 33 37 FF
  can0  403   [8]  97 2C 80 50 52 33 37 FF
  can0  405   [8]  8E 99 7F E0 52 33 37 FF
  can0  501   [8]  01 80 81 7F E8 29 00 00
  can0  503   [8]  03 97 34 7F 21 29 00 00
  can0  505   [8]  05 8F 56 7F C6 D1 00 00
  can0  401   [8]  80 81 7F F0 52 33 37 FF
  can0  403   [8]  97 2C 80 50 52 33 37 FF
  can0  405   [8]  8E 99 7F E0 52 33 37 FF
  can0  503   [8]  03 97 34 7F 3E 18 00 00
  can0  501   [8]  01 80 81 7F A6 A9 00 00
  can0  505   [8]  05 8F 56 80 27 D3 00 00
  can0  401   [8]  80 81 7F F0 52 33 37 FF
  can0  403   [8]  97 2C 80 50 52 33 37 FF
  can0  405   [8]  8E 99 7F E0 52 33 37 FF
  can0  503   [8]  03 97 35 7F 1A CD 00 00
  can0  501   [8]  01 80 81 80 26 6D 00 00
  can0  505   [8]  05 8F 56 80 57 38 00 00
  can0  401   [8]  80 81 7F F0 52 33 37 FF
  can0  403   [8]  97 2C 80 50 52 33 37 FF
  can0  405   [8]  8E 99 7F E0 52 33 37 FF
  can0  503   [8]  03 97 34 81 E4 08 00 00
  can0  501   [8]  01 80 81 80 28 A2 00 00
  can0  505   [8]  05 8F 56 7F F7 E2 00 00
  can0  401   [8]  80 81 7F F0 52 33 37 FF
  can0  403   [8]  97 2C 80 50 52 33 37 FF
  can0  405   [8]  8E 99 7F E0 52 33 37 FF
  can0  503   [8]  03 97 34 7F 23 B6 00 00
  can0  501   [8]  01 80 81 7F E9 39 00 00
  can0  505   [8]  05 8F 56 80 27 A6 00 00
  can0  401   [8]  80 81 7F F0 52 33 37 FF
  can0  403   [8]  97 2C 80 50 52 33 37 FF
  can0  405   [8]  8E 99 7F E0 52 33 37 FF
  can0  503   [8]  03 97 34 7F 22 91 00 00
  can0  501   [8]  01 80 81 7F E9 01 00 00
  can0  505   [8]  05 8F 56 7F F8 E4 00 00
  can0  401   [8]  80 81 7F F0 52 33 37 FF
  can0  403   [8]  97 2C 80 50 52 33 37 FF
  can0  405   [8]  8E 99 7F E0 52 33 37 FF
  can0  503   [8]  03 97 34 80 FB 76 00 00
  can0  501   [8]  01 80 81 7F 06 C7 00 00
  can0  505   [8]  05 8F 56 7F F7 19 00 00
  can0  401   [8]  80 81 7F F0 52 33 37 FF
  can0  403   [8]  97 47 80 50 52 33 37 FF
  can0  405   [8]  8E 99 7F E0 52 33 37 FF
  can0  503   [8]  03 97 34 7F 21 8E 00 00
  can0  501   [8]  01 80 81 80 27 B2 00 00
  can0  505   [8]  05 8F 56 7F F8 76 00 00
  can0  401   [8]  80 81 7F F0 52 33 37 FF
  can0  403   [8]  97 47 80 50 52 33 37 FF
  can0  405   [8]  8E 99 7F E0 52 33 37 FF
  can0  503   [8]  03 97 34 81 E4 DE 00 00
  can0  501   [8]  01 80 81 7F 08 15 00 00
  can0  505   [8]  05 8F 56 80 26 28 00 00
  can0  401   [8]  80 81 7F F0 52 33 37 FF
  can0  403   [8]  97 47 80 50 52 33 37 FF
  can0  405   [8]  8E 99 7F E0 52 33 37 FF
  can0  503   [8]  03 97 34 7F 1E 6B 00 00
  can0  501   [8]  01 80 81 80 27 7E 00 00
  can0  505   [8]  05 8F 56 7F F6 F9 00 00
  can0  401   [8]  80 81 7F F0 52 33 37 FF
  can0  403   [8]  97 47 80 50 52 33 37 FF
  can0  405   [8]  8E 99 7F E0 52 33 37 FF
  can0  503   [8]  03 97 34 7F 3B 44 00 00
  can0  501   [8]  01 80 81 7F C6 86 00 00
  can0  505   [8]  05 8F 56 7F C9 F8 00 00
  can0  401   [8]  80 81 7F F0 52 33 37 FF
  can0  403   [8]  97 47 80 50 52 33 37 FF
  can0  405   [8]  8E 99 7F E0 52 33 37 FF
  can0  503   [8]  03 97 34 7E 67 4F 00 00
  can0  501   [8]  01 80 81 80 47 59 00 00
  can0  505   [8]  05 8F 56 7F F7 B8 00 00
  can0  401   [8]  80 81 7F F0 52 33 37 FF
  can0  403   [8]  97 47 80 60 52 33 37 FF
  can0  405   [8]  8E 99 7F E0 52 33 37 FF
  can0  503   [8]  03 97 35 80 F5 2F 00 00
  can0  501   [8]  01 80 81 7F C8 37 00 00
  can0  505   [8]  05 8F 56 80 28 BD 00 00
  can0  401   [8]  80 81 7F F0 52 33 37 FF
  can0  403   [8]  97 47 80 60 52 33 37 FF
  can0  405   [8]  8E 99 7F E0 52 33 37 FF
  can0  503   [8]  03 97 34 7F 3F 9A 00 00
  can0  501   [8]  01 80 81 80 26 85 00 00
  can0  505   [8]  05 8F 56 80 56 48 00 00
  can0  401   [8]  80 81 7F F0 52 33 37 FF
  can0  403   [8]  97 47 80 60 52 33 37 FF
  can0  405   [8]  8E 99 7F E0 52 33 37 FF
  can0  503   [8]  03 97 35 80 01 5A 00 00
  can0  501   [8]  01 80 81 80 47 82 00 00
  can0  505   [8]  05 8F 56 7F C8 91 00 00
  can0  401   [8]  80 81 7F F0 52 33 37 FF
  can0  403   [8]  97 47 80 60 52 33 37 FF
  can0  405   [8]  8E 99 7F E0 52 33 37 FF
  can0  503   [8]  03 97 34 80 FD 91 00 00
  can0  501   [8]  01 80 81 7F 08 4E 00 00
  can0  505   [8]  05 8F 56 80 29 CE 00 00
  can0  401   [8]  80 81 7F F0 52 33 37 FF
  can0  403   [8]  97 47 80 60 52 33 37 FF
  can0  405   [8]  8E 99 7F E0 52 33 37 FF
  can0  503   [8]  03 97 34 80 04 FC 00 00
  can0  501   [8]  01 80 81 7F 07 32 00 00
  can0  505   [8]  05 8F 56 7F 99 F9 00 00
  can0  401   [8]  80 81 7F F0 52 33 37 FF
  can0  403   [8]  97 47 80 60 52 33 37 FF
  can0  405   [8]  8E 99 7F E0 52 33 37 FF
  can0  503   [8]  03 97 34 7F 39 D2 00 00
  can0  501   [8]  01 80 81 7F 08 47 00 00
  can0  505   [8]  05 8F 56 7F FA 28 00 00
  can0  401   [8]  80 81 7F F0 52 33 37 FF
  can0  403   [8]  97 47 80 60 52 33 37 FF
  can0  405   [8]  8E 99 7F E0 52 33 37 FF
  can0  503   [8]  03 97 34 80 00 09 00 00
  can0  501   [8]  01 80 81 7F A7 B9 00 00
  can0  505   [8]  05 8F 56 80 26 5E 00 00
  can0  401   [8]  80 81 7F F0 52 33 37 FF
  can0  403   [8]  97 47 80 60 52 33 37 FF
  can0  405   [8]  8E 99 7F E0 52 33 37 FF
  can0  503   [8]  03 97 34 7F 1F A8 00 00
  can0  501   [8]  01 80 81 80 27 C5 00 00
  can0  505   [8]  05 8F 56 80 57 7B 00 00
  can0  401   [8]  80 81 7F F0 52 33 37 FF
  can0  403   [8]  97 47 80 60 52 33 37 FF
  can0  405   [8]  8E 99 7F E0 52 33 37 FF
  can0  503   [8]  03 97 34 7F 41 5B 00 00
  can0  501   [8]  01 80 81 7F 07 FC 00 00
  can0  505   [8]  05 8F 56 7F C7 04 00 00
  can0  141   [8]  A4 00 64 00 1D 01 00 00
  can0  241   [8]  A4 15 6D 00 00 00 02 00
  can0  141   [8]  A4 00 64 00 1D 01 00 00
  can0  241   [8]  A4 15 6B 00 00 00 02 00
  can0  141   [8]  A4 00 64 00 1D 01 00 00
  can0  241   [8]  A4 15 6B 00 00 00 02 00
  can0  143   [8]  A4 00 64 00 62 3D 00 00
  can0  243   [8]  A4 19 FE 00 FF FF 82 00
  can0  145   [8]  A4 00 64 00 B8 D3 FD FF
  can0  245   [8]  A4 14 01 00 00 00 BA FA
read: Network is down
(.venv) user@ContinuO-Laptop-Linux:~/Co
ntinuO_Python$ ^C
(.venv) user@ContinuO-Laptop-Linux:~/ContinuO_Python$ 
